<Qucs Dataset 0.0.18>
<indep dtime 31>
  +0.00000000000e+000
  +1.00000000000e-009
  +2.00000000000e-009
  +3.00000000000e-009
  +4.00000000000e-009
  +5.00000000000e-009
  +6.00000000000e-009
  +7.00000000000e-009
  +8.00000000000e-009
  +9.00000000000e-009
  +1.00000000000e-008
  +1.10000000000e-008
  +1.20000000000e-008
  +1.30000000000e-008
  +1.40000000000e-008
  +1.50000000000e-008
  +1.60000000000e-008
  +1.70000000000e-008
  +1.80000000000e-008
  +1.90000000000e-008
  +2.00000000000e-008
  +2.10000000000e-008
  +2.20000000000e-008
  +2.30000000000e-008
  +2.40000000000e-008
  +2.50000000000e-008
  +2.60000000000e-008
  +2.70000000000e-008
  +2.80000000000e-008
  +2.90000000000e-008
  +3.00000000000e-008
</indep>
<dep X1.CLK.X dtime>
  0
  1
  0
  1
  0
  1
  0
  1
  0
  1
  0
  1
  0
  1
  0
  1
  0
  1
  0
  1
  0
  1
  0
  1
  0
  1
  0
  1
  0
  1
  0
</dep>
<dep X1.RST.X dtime>
  0
  1
  1
  1
  1
  1
  1
  1
  1
  1
  1
  1
  1
  1
  1
  1
  1
  1
  1
  1
  1
  1
  1
  1
  1
  1
  1
  1
  1
  1
  1
</dep>
<dep X1.UP.X dtime>
  0
  0
  0
  0
  0
  0
  0
  0
  0
  0
  0
  0
  0
  0
  0
  0
  1
  1
  1
  1
  1
  1
  1
  1
  1
  1
  1
  1
  1
  1
  1
</dep>
<dep X1.OUT1.X dtime>
  0
  1
  1
  1
  1
  0
  0
  0
  0
  1
  1
  1
  1
  0
  0
  0
  0
  0
  0
  1
  1
  1
  1
  0
  0
  0
  0
  1
  1
  1
  1
</dep>
<dep X1.OUT0.X dtime>
  0
  1
  1
  0
  0
  1
  1
  0
  0
  1
  1
  0
  0
  1
  1
  0
  0
  1
  1
  0
  0
  1
  1
  0
  0
  1
  1
  0
  0
  1
  1
</dep>
<dep X1.CNT.X dtime>
  00
  11
  11
  10
  10
  01
  01
  00
  00
  11
  11
  10
  10
  01
  01
  00
  00
  01
  01
  10
  10
  11
  11
  00
  00
  01
  01
  10
  10
  11
  11
</dep>
<dep CLK.X dtime>
  0
  1
  0
  1
  0
  1
  0
  1
  0
  1
  0
  1
  0
  1
  0
  1
  0
  1
  0
  1
  0
  1
  0
  1
  0
  1
  0
  1
  0
  1
  0
</dep>
<dep RST.X dtime>
  0
  1
  1
  1
  1
  1
  1
  1
  1
  1
  1
  1
  1
  1
  1
  1
  1
  1
  1
  1
  1
  1
  1
  1
  1
  1
  1
  1
  1
  1
  1
</dep>
<dep UP.X dtime>
  0
  0
  0
  0
  0
  0
  0
  0
  0
  0
  0
  0
  0
  0
  0
  0
  1
  1
  1
  1
  1
  1
  1
  1
  1
  1
  1
  1
  1
  1
  1
</dep>
<dep OUT1.X dtime>
  0
  1
  1
  1
  1
  0
  0
  0
  0
  1
  1
  1
  1
  0
  0
  0
  0
  0
  0
  1
  1
  1
  1
  0
  0
  0
  0
  1
  1
  1
  1
</dep>
<dep OUT0.X dtime>
  0
  1
  1
  0
  0
  1
  1
  0
  0
  1
  1
  0
  0
  1
  1
  0
  0
  1
  1
  0
  0
  1
  1
  0
  0
  1
  1
  0
  0
  1
  1
</dep>
<dep _srcCLKnetCLK.X dtime>
  0
  1
  0
  1
  0
  1
  0
  1
  0
  1
  0
  1
  0
  1
  0
  1
  0
  1
  0
  1
  0
  1
  0
  1
  0
  1
  0
  1
  0
  1
  0
</dep>
<dep _srcRSTnetRST.X dtime>
  0
  1
  1
  1
  1
  1
  1
  1
  1
  1
  1
  1
  1
  1
  1
  1
  1
  1
  1
  1
  1
  1
  1
  1
  1
  1
  1
  1
  1
  1
  1
</dep>
<dep _srcUPnetUP.X dtime>
  0
  0
  0
  0
  0
  0
  0
  0
  0
  0
  0
  0
  0
  0
  0
  0
  1
  1
  1
  1
  1
  1
  1
  1
  1
  1
  1
  1
  1
  1
  1
</dep>
