<Qucs Dataset 0.0.18>
<indep dtime 51>
  +0.00000000000e+000
  +1.00000000000e-009
  +2.00000000000e-009
  +3.00000000000e-009
  +4.00000000000e-009
  +5.00000000000e-009
  +6.00000000000e-009
  +7.00000000000e-009
  +8.00000000000e-009
  +9.00000000000e-009
  +1.00000000000e-008
  +1.10000000000e-008
  +1.20000000000e-008
  +1.30000000000e-008
  +1.40000000000e-008
  +1.50000000000e-008
  +1.60000000000e-008
  +1.70000000000e-008
  +1.80000000000e-008
  +1.90000000000e-008
  +2.00000000000e-008
  +2.10000000000e-008
  +2.20000000000e-008
  +2.30000000000e-008
  +2.40000000000e-008
  +2.50000000000e-008
  +2.60000000000e-008
  +2.70000000000e-008
  +2.80000000000e-008
  +2.90000000000e-008
  +3.00000000000e-008
  +3.10000000000e-008
  +3.20000000000e-008
  +3.30000000000e-008
  +3.40000000000e-008
  +3.50000000000e-008
  +3.60000000000e-008
  +3.70000000000e-008
  +3.80000000000e-008
  +3.90000000000e-008
  +4.00000000000e-008
  +4.10000000000e-008
  +4.20000000000e-008
  +4.30000000000e-008
  +4.40000000000e-008
  +4.50000000000e-008
  +4.60000000000e-008
  +4.70000000000e-008
  +4.80000000000e-008
  +4.90000000000e-008
  +5.00000000000e-008
</indep>
<dep OE.CLK.X dtime>
  0
  1
  0
  1
  0
  1
  0
  1
  0
  1
  0
  1
  0
  1
  0
  1
  0
  1
  0
  1
  0
  1
  0
  1
  0
  1
  0
  1
  0
  1
  0
  1
  0
  1
  0
  1
  0
  1
  0
  1
  0
  1
  0
  1
  0
  1
  0
  1
  0
  1
  0
</dep>
<dep OE.K.X dtime>
  0
  0
  0
  0
  0
  0
  0
  0
  0
  0
  0
  0
  0
  1
  1
  1
  1
  1
  1
  1
  1
  1
  0
  0
  0
  0
  0
  0
  0
  0
  0
  0
  0
  0
  0
  1
  1
  1
  1
  1
  1
  1
  1
  1
  0
  0
  0
  0
  0
  0
  0
</dep>
<dep OE.RST.X dtime>
  0
  1
  1
  1
  1
  1
  1
  1
  1
  1
  1
  1
  1
  1
  1
  1
  1
  1
  1
  1
  1
  1
  1
  1
  1
  1
  1
  1
  1
  1
  1
  1
  1
  1
  1
  1
  1
  1
  1
  1
  1
  1
  1
  1
  1
  1
  1
  1
  1
  1
  1
</dep>
<dep OE.OUT2.X dtime>
  0
  0
  0
  1
  1
  1
  1
  0
  0
  0
  0
  1
  1
  1
  1
  1
  1
  0
  0
  0
  0
  1
  1
  1
  1
  0
  0
  0
  0
  1
  1
  1
  1
  0
  0
  0
  0
  1
  1
  1
  1
  0
  0
  0
  0
  1
  1
  1
  1
  0
  0
</dep>
<dep OE.OUT1.X dtime>
  0
  1
  1
  0
  0
  1
  1
  0
  0
  1
  1
  0
  0
  0
  0
  1
  1
  0
  0
  1
  1
  0
  0
  1
  1
  0
  0
  1
  1
  0
  0
  1
  1
  0
  0
  1
  1
  0
  0
  1
  1
  0
  0
  1
  1
  0
  0
  1
  1
  0
  0
</dep>
<dep OE.OUT0.X dtime>
  0
  0
  0
  0
  0
  0
  0
  1
  1
  0
  0
  0
  0
  1
  1
  1
  1
  1
  1
  1
  1
  1
  1
  0
  0
  1
  1
  0
  0
  0
  0
  0
  0
  1
  1
  1
  1
  1
  1
  1
  1
  1
  1
  1
  1
  0
  0
  0
  0
  1
  1
</dep>
<dep OE.CNT.X dtime>
  000
  010
  010
  100
  100
  110
  110
  001
  001
  010
  010
  100
  100
  101
  101
  111
  111
  001
  001
  011
  011
  101
  101
  110
  110
  001
  001
  010
  010
  100
  100
  110
  110
  001
  001
  011
  011
  101
  101
  111
  111
  001
  001
  011
  011
  100
  100
  110
  110
  001
  001
</dep>
<dep _net0.X dtime>
  0
  1
  0
  1
  0
  1
  0
  1
  0
  1
  0
  1
  0
  1
  0
  1
  0
  1
  0
  1
  0
  1
  0
  1
  0
  1
  0
  1
  0
  1
  0
  1
  0
  1
  0
  1
  0
  1
  0
  1
  0
  1
  0
  1
  0
  1
  0
  1
  0
  1
  0
</dep>
<dep _net1.X dtime>
  0
  1
  1
  1
  1
  1
  1
  1
  1
  1
  1
  1
  1
  1
  1
  1
  1
  1
  1
  1
  1
  1
  1
  1
  1
  1
  1
  1
  1
  1
  1
  1
  1
  1
  1
  1
  1
  1
  1
  1
  1
  1
  1
  1
  1
  1
  1
  1
  1
  1
  1
</dep>
<dep _net2.X dtime>
  0
  0
  0
  0
  0
  0
  0
  0
  0
  0
  0
  0
  0
  1
  1
  1
  1
  1
  1
  1
  1
  1
  0
  0
  0
  0
  0
  0
  0
  0
  0
  0
  0
  0
  0
  1
  1
  1
  1
  1
  1
  1
  1
  1
  0
  0
  0
  0
  0
  0
  0
</dep>
<dep OUT2.X dtime>
  0
  0
  0
  1
  1
  1
  1
  0
  0
  0
  0
  1
  1
  1
  1
  1
  1
  0
  0
  0
  0
  1
  1
  1
  1
  0
  0
  0
  0
  1
  1
  1
  1
  0
  0
  0
  0
  1
  1
  1
  1
  0
  0
  0
  0
  1
  1
  1
  1
  0
  0
</dep>
<dep OUT1.X dtime>
  0
  1
  1
  0
  0
  1
  1
  0
  0
  1
  1
  0
  0
  0
  0
  1
  1
  0
  0
  1
  1
  0
  0
  1
  1
  0
  0
  1
  1
  0
  0
  1
  1
  0
  0
  1
  1
  0
  0
  1
  1
  0
  0
  1
  1
  0
  0
  1
  1
  0
  0
</dep>
<dep OUT0.X dtime>
  0
  0
  0
  0
  0
  0
  0
  1
  1
  0
  0
  0
  0
  1
  1
  1
  1
  1
  1
  1
  1
  1
  1
  0
  0
  1
  1
  0
  0
  0
  0
  0
  0
  1
  1
  1
  1
  1
  1
  1
  1
  1
  1
  1
  1
  0
  0
  0
  0
  1
  1
</dep>
<dep _srcCLKnet_net0.X dtime>
  0
  1
  0
  1
  0
  1
  0
  1
  0
  1
  0
  1
  0
  1
  0
  1
  0
  1
  0
  1
  0
  1
  0
  1
  0
  1
  0
  1
  0
  1
  0
  1
  0
  1
  0
  1
  0
  1
  0
  1
  0
  1
  0
  1
  0
  1
  0
  1
  0
  1
  0
</dep>
<dep _srcKnet_net2.X dtime>
  0
  0
  0
  0
  0
  0
  0
  0
  0
  0
  0
  0
  0
  1
  1
  1
  1
  1
  1
  1
  1
  1
  0
  0
  0
  0
  0
  0
  0
  0
  0
  0
  0
  0
  0
  1
  1
  1
  1
  1
  1
  1
  1
  1
  0
  0
  0
  0
  0
  0
  0
</dep>
<dep _srcRSTnet_net1.X dtime>
  0
  1
  1
  1
  1
  1
  1
  1
  1
  1
  1
  1
  1
  1
  1
  1
  1
  1
  1
  1
  1
  1
  1
  1
  1
  1
  1
  1
  1
  1
  1
  1
  1
  1
  1
  1
  1
  1
  1
  1
  1
  1
  1
  1
  1
  1
  1
  1
  1
  1
  1
</dep>
