<Qucs Dataset 0.0.18>
<indep Vgs 201>
  +0.00000000000e+000
  +4.00000000000e-003
  +8.00000000000e-003
  +1.20000000000e-002
  +1.60000000000e-002
  +2.00000000000e-002
  +2.40000000000e-002
  +2.80000000000e-002
  +3.20000000000e-002
  +3.60000000000e-002
  +4.00000000000e-002
  +4.40000000000e-002
  +4.80000000000e-002
  +5.20000000000e-002
  +5.60000000000e-002
  +6.00000000000e-002
  +6.40000000000e-002
  +6.80000000000e-002
  +7.20000000000e-002
  +7.60000000000e-002
  +8.00000000000e-002
  +8.40000000000e-002
  +8.80000000000e-002
  +9.20000000000e-002
  +9.60000000000e-002
  +1.00000000000e-001
  +1.04000000000e-001
  +1.08000000000e-001
  +1.12000000000e-001
  +1.16000000000e-001
  +1.20000000000e-001
  +1.24000000000e-001
  +1.28000000000e-001
  +1.32000000000e-001
  +1.36000000000e-001
  +1.40000000000e-001
  +1.44000000000e-001
  +1.48000000000e-001
  +1.52000000000e-001
  +1.56000000000e-001
  +1.60000000000e-001
  +1.64000000000e-001
  +1.68000000000e-001
  +1.72000000000e-001
  +1.76000000000e-001
  +1.80000000000e-001
  +1.84000000000e-001
  +1.88000000000e-001
  +1.92000000000e-001
  +1.96000000000e-001
  +2.00000000000e-001
  +2.04000000000e-001
  +2.08000000000e-001
  +2.12000000000e-001
  +2.16000000000e-001
  +2.20000000000e-001
  +2.24000000000e-001
  +2.28000000000e-001
  +2.32000000000e-001
  +2.36000000000e-001
  +2.40000000000e-001
  +2.44000000000e-001
  +2.48000000000e-001
  +2.52000000000e-001
  +2.56000000000e-001
  +2.60000000000e-001
  +2.64000000000e-001
  +2.68000000000e-001
  +2.72000000000e-001
  +2.76000000000e-001
  +2.80000000000e-001
  +2.84000000000e-001
  +2.88000000000e-001
  +2.92000000000e-001
  +2.96000000000e-001
  +3.00000000000e-001
  +3.04000000000e-001
  +3.08000000000e-001
  +3.12000000000e-001
  +3.16000000000e-001
  +3.20000000000e-001
  +3.24000000000e-001
  +3.28000000000e-001
  +3.32000000000e-001
  +3.36000000000e-001
  +3.40000000000e-001
  +3.44000000000e-001
  +3.48000000000e-001
  +3.52000000000e-001
  +3.56000000000e-001
  +3.60000000000e-001
  +3.64000000000e-001
  +3.68000000000e-001
  +3.72000000000e-001
  +3.76000000000e-001
  +3.80000000000e-001
  +3.84000000000e-001
  +3.88000000000e-001
  +3.92000000000e-001
  +3.96000000000e-001
  +4.00000000000e-001
  +4.04000000000e-001
  +4.08000000000e-001
  +4.12000000000e-001
  +4.16000000000e-001
  +4.20000000000e-001
  +4.24000000000e-001
  +4.28000000000e-001
  +4.32000000000e-001
  +4.36000000000e-001
  +4.40000000000e-001
  +4.44000000000e-001
  +4.48000000000e-001
  +4.52000000000e-001
  +4.56000000000e-001
  +4.60000000000e-001
  +4.64000000000e-001
  +4.68000000000e-001
  +4.72000000000e-001
  +4.76000000000e-001
  +4.80000000000e-001
  +4.84000000000e-001
  +4.88000000000e-001
  +4.92000000000e-001
  +4.96000000000e-001
  +5.00000000000e-001
  +5.04000000000e-001
  +5.08000000000e-001
  +5.12000000000e-001
  +5.16000000000e-001
  +5.20000000000e-001
  +5.24000000000e-001
  +5.28000000000e-001
  +5.32000000000e-001
  +5.36000000000e-001
  +5.40000000000e-001
  +5.44000000000e-001
  +5.48000000000e-001
  +5.52000000000e-001
  +5.56000000000e-001
  +5.60000000000e-001
  +5.64000000000e-001
  +5.68000000000e-001
  +5.72000000000e-001
  +5.76000000000e-001
  +5.80000000000e-001
  +5.84000000000e-001
  +5.88000000000e-001
  +5.92000000000e-001
  +5.96000000000e-001
  +6.00000000000e-001
  +6.04000000000e-001
  +6.08000000000e-001
  +6.12000000000e-001
  +6.16000000000e-001
  +6.20000000000e-001
  +6.24000000000e-001
  +6.28000000000e-001
  +6.32000000000e-001
  +6.36000000000e-001
  +6.40000000000e-001
  +6.44000000000e-001
  +6.48000000000e-001
  +6.52000000000e-001
  +6.56000000000e-001
  +6.60000000000e-001
  +6.64000000000e-001
  +6.68000000000e-001
  +6.72000000000e-001
  +6.76000000000e-001
  +6.80000000000e-001
  +6.84000000000e-001
  +6.88000000000e-001
  +6.92000000000e-001
  +6.96000000000e-001
  +7.00000000000e-001
  +7.04000000000e-001
  +7.08000000000e-001
  +7.12000000000e-001
  +7.16000000000e-001
  +7.20000000000e-001
  +7.24000000000e-001
  +7.28000000000e-001
  +7.32000000000e-001
  +7.36000000000e-001
  +7.40000000000e-001
  +7.44000000000e-001
  +7.48000000000e-001
  +7.52000000000e-001
  +7.56000000000e-001
  +7.60000000000e-001
  +7.64000000000e-001
  +7.68000000000e-001
  +7.72000000000e-001
  +7.76000000000e-001
  +7.80000000000e-001
  +7.84000000000e-001
  +7.88000000000e-001
  +7.92000000000e-001
  +7.96000000000e-001
  +8.00000000000e-001
</indep>
<dep Vds.I Vgs>
  -3.96816818968e-013
  -3.96816818968e-013
  -3.96816818968e-013
  -3.96816818968e-013
  -3.96816818968e-013
  -3.96816818968e-013
  -3.96816818968e-013
  -3.96816818968e-013
  -3.96816818968e-013
  -3.96816818968e-013
  -3.96816818968e-013
  -3.96816818968e-013
  -3.96816818968e-013
  -3.96816818968e-013
  -3.96816818968e-013
  -3.96816818968e-013
  -3.96816818968e-013
  -3.96816818968e-013
  -3.96816818968e-013
  -3.96816818968e-013
  -3.96816818968e-013
  -3.96816818968e-013
  -3.96816818968e-013
  -3.96816818968e-013
  -3.96816818968e-013
  -3.96816818968e-013
  -3.96816818968e-013
  -3.96816818968e-013
  -3.96816818968e-013
  -3.96816818968e-013
  -3.96816818968e-013
  -3.96816818968e-013
  -3.96816818968e-013
  -3.96816818968e-013
  -3.96816818968e-013
  -3.96816818968e-013
  -3.96816818968e-013
  -3.96816818968e-013
  -3.96816818968e-013
  -3.96816818968e-013
  -3.96816818968e-013
  -3.96816818968e-013
  -3.96816818968e-013
  -3.96816818968e-013
  -3.96816818968e-013
  -3.96816818968e-013
  -3.96816818968e-013
  -3.96816818968e-013
  -3.96816818968e-013
  -3.96816818968e-013
  -3.96816818968e-013
  -3.96816818968e-013
  -3.96816818968e-013
  -3.96816818968e-013
  -3.96816818968e-013
  -3.96816818968e-013
  -3.96816818968e-013
  -3.96816818968e-013
  -3.96816818968e-013
  -3.96816818968e-013
  -3.96816818968e-013
  -3.96816818968e-013
  -3.96816818968e-013
  -3.96816818968e-013
  -3.96816818968e-013
  -3.96816818968e-013
  -3.96816818968e-013
  -3.96816818968e-013
  -3.96816818968e-013
  -3.96816818968e-013
  -3.96816818968e-013
  -3.96816818968e-013
  -3.96816818968e-013
  -3.96816818968e-013
  -3.96816818968e-013
  -3.96816818968e-013
  -3.96816818968e-013
  -3.96816818968e-013
  -3.96816818968e-013
  -3.96816818968e-013
  -3.96816818968e-013
  -3.96816818968e-013
  -3.96816818968e-013
  -3.96816818968e-013
  -3.96816818968e-013
  -3.96816818968e-013
  -3.96816818968e-013
  -3.96816818968e-013
  -3.96816818968e-013
  -3.96816818968e-013
  -3.96816818968e-013
  -3.96816818968e-013
  -3.96816818968e-013
  -3.96816818968e-013
  -3.96816818968e-013
  -3.96816818968e-013
  -3.96816818968e-013
  -3.96816818968e-013
  -3.96816818968e-013
  -3.96816818968e-013
  -3.96816818968e-013
  -3.96816818968e-013
  -3.96816818968e-013
  -3.96816818968e-013
  -3.96816818968e-013
  -3.96816818968e-013
  -3.96816818968e-013
  -3.96816818968e-013
  -3.96816818968e-013
  -3.96816818968e-013
  -3.96816818968e-013
  -3.96816818968e-013
  -3.96816818968e-013
  -3.96816818968e-013
  -3.96816818968e-013
  -3.96816818968e-013
  -3.96816818968e-013
  -3.96816818968e-013
  -3.96816818968e-013
  -3.96816818968e-013
  -3.96816818968e-013
  -3.96816818968e-013
  -3.96816818968e-013
  -3.96816818968e-013
  -3.96816818968e-013
  -3.96816818968e-013
  -4.92480396817e-007
  -1.96992039682e-006
  -4.43232039682e-006
  -7.87968039682e-006
  -1.23120003968e-005
  -1.77292803968e-005
  -2.41315203968e-005
  -3.15187203968e-005
  -3.98908803968e-005
  -4.92480003968e-005
  -5.95900803968e-005
  -7.09171203968e-005
  -8.32291203968e-005
  -9.65260803968e-005
  -1.10808000397e-004
  -1.26074880397e-004
  -1.42326720397e-004
  -1.59563520397e-004
  -1.77785280397e-004
  -1.96992000397e-004
  -2.17183680397e-004
  -2.38360320397e-004
  -2.60521920397e-004
  -2.83668480397e-004
  -3.07800000397e-004
  -3.32916480397e-004
  -3.59017920397e-004
  -3.86104320397e-004
  -4.14175680397e-004
  -4.43232000397e-004
  -4.73273280397e-004
  -5.04299520397e-004
  -5.36310720397e-004
  -5.69306880397e-004
  -6.03288000397e-004
  -6.38254080397e-004
  -6.74205120397e-004
  -7.11141120397e-004
  -7.49062080397e-004
  -7.87968000397e-004
  -8.27858880397e-004
  -8.68734720397e-004
  -9.10595520397e-004
  -9.53441280397e-004
  -9.97272000397e-004
  -1.04208768040e-003
  -1.08788832040e-003
  -1.13467392040e-003
  -1.18244448040e-003
  -1.23120000040e-003
  -1.28094048040e-003
  -1.33166592040e-003
  -1.38337632040e-003
  -1.43607168040e-003
  -1.48975200040e-003
  -1.54441728040e-003
  -1.60006752040e-003
  -1.65670272040e-003
  -1.71432288040e-003
  -1.77292800040e-003
  -1.83251808040e-003
  -1.89309312040e-003
  -1.95465312040e-003
  -2.01719808040e-003
  -2.08072800040e-003
  -2.14524288040e-003
  -2.21074272040e-003
  -2.27722752040e-003
  -2.34469728040e-003
  -2.41315200040e-003
  -2.48259168040e-003
  -2.55301632040e-003
  -2.62442592040e-003
  -2.69682048040e-003
  -2.77020000040e-003
</dep>
<dep Pr1.I Vgs>
  +3.96816818968e-013
  +3.96816818968e-013
  +3.96816818968e-013
  +3.96816818968e-013
  +3.96816818968e-013
  +3.96816818968e-013
  +3.96816818968e-013
  +3.96816818968e-013
  +3.96816818968e-013
  +3.96816818968e-013
  +3.96816818968e-013
  +3.96816818968e-013
  +3.96816818968e-013
  +3.96816818968e-013
  +3.96816818968e-013
  +3.96816818968e-013
  +3.96816818968e-013
  +3.96816818968e-013
  +3.96816818968e-013
  +3.96816818968e-013
  +3.96816818968e-013
  +3.96816818968e-013
  +3.96816818968e-013
  +3.96816818968e-013
  +3.96816818968e-013
  +3.96816818968e-013
  +3.96816818968e-013
  +3.96816818968e-013
  +3.96816818968e-013
  +3.96816818968e-013
  +3.96816818968e-013
  +3.96816818968e-013
  +3.96816818968e-013
  +3.96816818968e-013
  +3.96816818968e-013
  +3.96816818968e-013
  +3.96816818968e-013
  +3.96816818968e-013
  +3.96816818968e-013
  +3.96816818968e-013
  +3.96816818968e-013
  +3.96816818968e-013
  +3.96816818968e-013
  +3.96816818968e-013
  +3.96816818968e-013
  +3.96816818968e-013
  +3.96816818968e-013
  +3.96816818968e-013
  +3.96816818968e-013
  +3.96816818968e-013
  +3.96816818968e-013
  +3.96816818968e-013
  +3.96816818968e-013
  +3.96816818968e-013
  +3.96816818968e-013
  +3.96816818968e-013
  +3.96816818968e-013
  +3.96816818968e-013
  +3.96816818968e-013
  +3.96816818968e-013
  +3.96816818968e-013
  +3.96816818968e-013
  +3.96816818968e-013
  +3.96816818968e-013
  +3.96816818968e-013
  +3.96816818968e-013
  +3.96816818968e-013
  +3.96816818968e-013
  +3.96816818968e-013
  +3.96816818968e-013
  +3.96816818968e-013
  +3.96816818968e-013
  +3.96816818968e-013
  +3.96816818968e-013
  +3.96816818968e-013
  +3.96816818968e-013
  +3.96816818968e-013
  +3.96816818968e-013
  +3.96816818968e-013
  +3.96816818968e-013
  +3.96816818968e-013
  +3.96816818968e-013
  +3.96816818968e-013
  +3.96816818968e-013
  +3.96816818968e-013
  +3.96816818968e-013
  +3.96816818968e-013
  +3.96816818968e-013
  +3.96816818968e-013
  +3.96816818968e-013
  +3.96816818968e-013
  +3.96816818968e-013
  +3.96816818968e-013
  +3.96816818968e-013
  +3.96816818968e-013
  +3.96816818968e-013
  +3.96816818968e-013
  +3.96816818968e-013
  +3.96816818968e-013
  +3.96816818968e-013
  +3.96816818968e-013
  +3.96816818968e-013
  +3.96816818968e-013
  +3.96816818968e-013
  +3.96816818968e-013
  +3.96816818968e-013
  +3.96816818968e-013
  +3.96816818968e-013
  +3.96816818968e-013
  +3.96816818968e-013
  +3.96816818968e-013
  +3.96816818968e-013
  +3.96816818968e-013
  +3.96816818968e-013
  +3.96816818968e-013
  +3.96816818968e-013
  +3.96816818968e-013
  +3.96816818968e-013
  +3.96816818968e-013
  +3.96816818968e-013
  +3.96816818968e-013
  +3.96816818968e-013
  +3.96816818968e-013
  +3.96816818968e-013
  +3.96816818968e-013
  +3.96816818968e-013
  +4.92480396817e-007
  +1.96992039682e-006
  +4.43232039682e-006
  +7.87968039682e-006
  +1.23120003968e-005
  +1.77292803968e-005
  +2.41315203968e-005
  +3.15187203968e-005
  +3.98908803968e-005
  +4.92480003968e-005
  +5.95900803968e-005
  +7.09171203968e-005
  +8.32291203968e-005
  +9.65260803968e-005
  +1.10808000397e-004
  +1.26074880397e-004
  +1.42326720397e-004
  +1.59563520397e-004
  +1.77785280397e-004
  +1.96992000397e-004
  +2.17183680397e-004
  +2.38360320397e-004
  +2.60521920397e-004
  +2.83668480397e-004
  +3.07800000397e-004
  +3.32916480397e-004
  +3.59017920397e-004
  +3.86104320397e-004
  +4.14175680397e-004
  +4.43232000397e-004
  +4.73273280397e-004
  +5.04299520397e-004
  +5.36310720397e-004
  +5.69306880397e-004
  +6.03288000397e-004
  +6.38254080397e-004
  +6.74205120397e-004
  +7.11141120397e-004
  +7.49062080397e-004
  +7.87968000397e-004
  +8.27858880397e-004
  +8.68734720397e-004
  +9.10595520397e-004
  +9.53441280397e-004
  +9.97272000397e-004
  +1.04208768040e-003
  +1.08788832040e-003
  +1.13467392040e-003
  +1.18244448040e-003
  +1.23120000040e-003
  +1.28094048040e-003
  +1.33166592040e-003
  +1.38337632040e-003
  +1.43607168040e-003
  +1.48975200040e-003
  +1.54441728040e-003
  +1.60006752040e-003
  +1.65670272040e-003
  +1.71432288040e-003
  +1.77292800040e-003
  +1.83251808040e-003
  +1.89309312040e-003
  +1.95465312040e-003
  +2.01719808040e-003
  +2.08072800040e-003
  +2.14524288040e-003
  +2.21074272040e-003
  +2.27722752040e-003
  +2.34469728040e-003
  +2.41315200040e-003
  +2.48259168040e-003
  +2.55301632040e-003
  +2.62442592040e-003
  +2.69682048040e-003
  +2.77020000040e-003
</dep>
<dep Vgs.I Vgs>
  +0.00000000000e+000
  +0.00000000000e+000
  +0.00000000000e+000
  +0.00000000000e+000
  +0.00000000000e+000
  +0.00000000000e+000
  +0.00000000000e+000
  +0.00000000000e+000
  +0.00000000000e+000
  +0.00000000000e+000
  +0.00000000000e+000
  +0.00000000000e+000
  +0.00000000000e+000
  +0.00000000000e+000
  +0.00000000000e+000
  +0.00000000000e+000
  +0.00000000000e+000
  +0.00000000000e+000
  +0.00000000000e+000
  +0.00000000000e+000
  +0.00000000000e+000
  +0.00000000000e+000
  +0.00000000000e+000
  +0.00000000000e+000
  +0.00000000000e+000
  +0.00000000000e+000
  +0.00000000000e+000
  +0.00000000000e+000
  +0.00000000000e+000
  +0.00000000000e+000
  +0.00000000000e+000
  +0.00000000000e+000
  +0.00000000000e+000
  +0.00000000000e+000
  +0.00000000000e+000
  +0.00000000000e+000
  +0.00000000000e+000
  +0.00000000000e+000
  +0.00000000000e+000
  +0.00000000000e+000
  +0.00000000000e+000
  +0.00000000000e+000
  +0.00000000000e+000
  +0.00000000000e+000
  +0.00000000000e+000
  +0.00000000000e+000
  +0.00000000000e+000
  +0.00000000000e+000
  +0.00000000000e+000
  +0.00000000000e+000
  +0.00000000000e+000
  +0.00000000000e+000
  +0.00000000000e+000
  +0.00000000000e+000
  +0.00000000000e+000
  +0.00000000000e+000
  +0.00000000000e+000
  +0.00000000000e+000
  +0.00000000000e+000
  +0.00000000000e+000
  +0.00000000000e+000
  +0.00000000000e+000
  +0.00000000000e+000
  +0.00000000000e+000
  +0.00000000000e+000
  +0.00000000000e+000
  +0.00000000000e+000
  +0.00000000000e+000
  +0.00000000000e+000
  +0.00000000000e+000
  +0.00000000000e+000
  +0.00000000000e+000
  +0.00000000000e+000
  +0.00000000000e+000
  +0.00000000000e+000
  +0.00000000000e+000
  +0.00000000000e+000
  +0.00000000000e+000
  +0.00000000000e+000
  +0.00000000000e+000
  +0.00000000000e+000
  +0.00000000000e+000
  +0.00000000000e+000
  +0.00000000000e+000
  +0.00000000000e+000
  +0.00000000000e+000
  +0.00000000000e+000
  +0.00000000000e+000
  +0.00000000000e+000
  +0.00000000000e+000
  +0.00000000000e+000
  +0.00000000000e+000
  +0.00000000000e+000
  +0.00000000000e+000
  +0.00000000000e+000
  +0.00000000000e+000
  +0.00000000000e+000
  +0.00000000000e+000
  +0.00000000000e+000
  +0.00000000000e+000
  +0.00000000000e+000
  +0.00000000000e+000
  +0.00000000000e+000
  +0.00000000000e+000
  +0.00000000000e+000
  +0.00000000000e+000
  +0.00000000000e+000
  +0.00000000000e+000
  +0.00000000000e+000
  +0.00000000000e+000
  +0.00000000000e+000
  +0.00000000000e+000
  +0.00000000000e+000
  +0.00000000000e+000
  +0.00000000000e+000
  +0.00000000000e+000
  +0.00000000000e+000
  +0.00000000000e+000
  +0.00000000000e+000
  +0.00000000000e+000
  +0.00000000000e+000
  +0.00000000000e+000
  +0.00000000000e+000
  +0.00000000000e+000
  +0.00000000000e+000
  +0.00000000000e+000
  +0.00000000000e+000
  +0.00000000000e+000
  +0.00000000000e+000
  +0.00000000000e+000
  +0.00000000000e+000
  +0.00000000000e+000
  +0.00000000000e+000
  +0.00000000000e+000
  +0.00000000000e+000
  +0.00000000000e+000
  +0.00000000000e+000
  +0.00000000000e+000
  +0.00000000000e+000
  +0.00000000000e+000
  +0.00000000000e+000
  +0.00000000000e+000
  +0.00000000000e+000
  +0.00000000000e+000
  +0.00000000000e+000
  +0.00000000000e+000
  +0.00000000000e+000
  +0.00000000000e+000
  +0.00000000000e+000
  +0.00000000000e+000
  +0.00000000000e+000
  +0.00000000000e+000
  +0.00000000000e+000
  +0.00000000000e+000
  +0.00000000000e+000
  +0.00000000000e+000
  +0.00000000000e+000
  +0.00000000000e+000
  +0.00000000000e+000
  +0.00000000000e+000
  +0.00000000000e+000
  +0.00000000000e+000
  +0.00000000000e+000
  +0.00000000000e+000
  +0.00000000000e+000
  +0.00000000000e+000
  +0.00000000000e+000
  +0.00000000000e+000
  +0.00000000000e+000
  +0.00000000000e+000
  +0.00000000000e+000
  +0.00000000000e+000
  +0.00000000000e+000
  +0.00000000000e+000
  +0.00000000000e+000
  +0.00000000000e+000
  +0.00000000000e+000
  +0.00000000000e+000
  +0.00000000000e+000
  +0.00000000000e+000
  +0.00000000000e+000
  +0.00000000000e+000
  +0.00000000000e+000
  +0.00000000000e+000
  +0.00000000000e+000
  +0.00000000000e+000
  +0.00000000000e+000
  +0.00000000000e+000
  +0.00000000000e+000
  +0.00000000000e+000
  +0.00000000000e+000
  +0.00000000000e+000
  +0.00000000000e+000
  +0.00000000000e+000
  +0.00000000000e+000
  +0.00000000000e+000
  +0.00000000000e+000
  +0.00000000000e+000
  +0.00000000000e+000
  +0.00000000000e+000
  +0.00000000000e+000
</dep>
<dep _net0.V Vgs>
  +0.00000000000e+000
  +4.00000000000e-003
  +8.00000000000e-003
  +1.20000000000e-002
  +1.60000000000e-002
  +2.00000000000e-002
  +2.40000000000e-002
  +2.80000000000e-002
  +3.20000000000e-002
  +3.60000000000e-002
  +4.00000000000e-002
  +4.40000000000e-002
  +4.80000000000e-002
  +5.20000000000e-002
  +5.60000000000e-002
  +6.00000000000e-002
  +6.40000000000e-002
  +6.80000000000e-002
  +7.20000000000e-002
  +7.60000000000e-002
  +8.00000000000e-002
  +8.40000000000e-002
  +8.80000000000e-002
  +9.20000000000e-002
  +9.60000000000e-002
  +1.00000000000e-001
  +1.04000000000e-001
  +1.08000000000e-001
  +1.12000000000e-001
  +1.16000000000e-001
  +1.20000000000e-001
  +1.24000000000e-001
  +1.28000000000e-001
  +1.32000000000e-001
  +1.36000000000e-001
  +1.40000000000e-001
  +1.44000000000e-001
  +1.48000000000e-001
  +1.52000000000e-001
  +1.56000000000e-001
  +1.60000000000e-001
  +1.64000000000e-001
  +1.68000000000e-001
  +1.72000000000e-001
  +1.76000000000e-001
  +1.80000000000e-001
  +1.84000000000e-001
  +1.88000000000e-001
  +1.92000000000e-001
  +1.96000000000e-001
  +2.00000000000e-001
  +2.04000000000e-001
  +2.08000000000e-001
  +2.12000000000e-001
  +2.16000000000e-001
  +2.20000000000e-001
  +2.24000000000e-001
  +2.28000000000e-001
  +2.32000000000e-001
  +2.36000000000e-001
  +2.40000000000e-001
  +2.44000000000e-001
  +2.48000000000e-001
  +2.52000000000e-001
  +2.56000000000e-001
  +2.60000000000e-001
  +2.64000000000e-001
  +2.68000000000e-001
  +2.72000000000e-001
  +2.76000000000e-001
  +2.80000000000e-001
  +2.84000000000e-001
  +2.88000000000e-001
  +2.92000000000e-001
  +2.96000000000e-001
  +3.00000000000e-001
  +3.04000000000e-001
  +3.08000000000e-001
  +3.12000000000e-001
  +3.16000000000e-001
  +3.20000000000e-001
  +3.24000000000e-001
  +3.28000000000e-001
  +3.32000000000e-001
  +3.36000000000e-001
  +3.40000000000e-001
  +3.44000000000e-001
  +3.48000000000e-001
  +3.52000000000e-001
  +3.56000000000e-001
  +3.60000000000e-001
  +3.64000000000e-001
  +3.68000000000e-001
  +3.72000000000e-001
  +3.76000000000e-001
  +3.80000000000e-001
  +3.84000000000e-001
  +3.88000000000e-001
  +3.92000000000e-001
