<Qucs Dataset 0.0.18>
<indep time 201>
  +0.00000000000e+000
  +5.00000000000e-005
  +1.00000000000e-004
  +1.50000000000e-004
  +2.00000000000e-004
  +2.50000000000e-004
  +3.00000000000e-004
  +3.50000000000e-004
  +4.00000000000e-004
  +4.50000000000e-004
  +5.00000000000e-004
  +5.50000000000e-004
  +6.00000000000e-004
  +6.50000000000e-004
  +7.00000000000e-004
  +7.50000000000e-004
  +8.00000000000e-004
  +8.50000000000e-004
  +9.00000000000e-004
  +9.50000000000e-004
  +1.00000000000e-003
  +1.05000000000e-003
  +1.10000000000e-003
  +1.15000000000e-003
  +1.20000000000e-003
  +1.25000000000e-003
  +1.30000000000e-003
  +1.35000000000e-003
  +1.40000000000e-003
  +1.45000000000e-003
  +1.50000000000e-003
  +1.55000000000e-003
  +1.60000000000e-003
  +1.65000000000e-003
  +1.70000000000e-003
  +1.75000000000e-003
  +1.80000000000e-003
  +1.85000000000e-003
  +1.90000000000e-003
  +1.95000000000e-003
  +2.00000000000e-003
  +2.05000000000e-003
  +2.10000000000e-003
  +2.15000000000e-003
  +2.20000000000e-003
  +2.25000000000e-003
  +2.30000000000e-003
  +2.35000000000e-003
  +2.40000000000e-003
  +2.45000000000e-003
  +2.50000000000e-003
  +2.55000000000e-003
  +2.60000000000e-003
  +2.65000000000e-003
  +2.70000000000e-003
  +2.75000000000e-003
  +2.80000000000e-003
  +2.85000000000e-003
  +2.90000000000e-003
  +2.95000000000e-003
  +3.00000000000e-003
  +3.05000000000e-003
  +3.10000000000e-003
  +3.15000000000e-003
  +3.20000000000e-003
  +3.25000000000e-003
  +3.30000000000e-003
  +3.35000000000e-003
  +3.40000000000e-003
  +3.45000000000e-003
  +3.50000000000e-003
  +3.55000000000e-003
  +3.60000000000e-003
  +3.65000000000e-003
  +3.70000000000e-003
  +3.75000000000e-003
  +3.80000000000e-003
  +3.85000000000e-003
  +3.90000000000e-003
  +3.95000000000e-003
  +4.00000000000e-003
  +4.05000000000e-003
  +4.10000000000e-003
  +4.15000000000e-003
  +4.20000000000e-003
  +4.25000000000e-003
  +4.30000000000e-003
  +4.35000000000e-003
  +4.40000000000e-003
  +4.45000000000e-003
  +4.50000000000e-003
  +4.55000000000e-003
  +4.60000000000e-003
  +4.65000000000e-003
  +4.70000000000e-003
  +4.75000000000e-003
  +4.80000000000e-003
  +4.85000000000e-003
  +4.90000000000e-003
  +4.95000000000e-003
  +5.00000000000e-003
  +5.05000000000e-003
  +5.10000000000e-003
  +5.15000000000e-003
  +5.20000000000e-003
  +5.25000000000e-003
  +5.30000000000e-003
  +5.35000000000e-003
  +5.40000000000e-003
  +5.45000000000e-003
  +5.50000000000e-003
  +5.55000000000e-003
  +5.60000000000e-003
  +5.65000000000e-003
  +5.70000000000e-003
  +5.75000000000e-003
  +5.80000000000e-003
  +5.85000000000e-003
  +5.90000000000e-003
  +5.95000000000e-003
  +6.00000000000e-003
  +6.05000000000e-003
  +6.10000000000e-003
  +6.15000000000e-003
  +6.20000000000e-003
  +6.25000000000e-003
  +6.30000000000e-003
  +6.35000000000e-003
  +6.40000000000e-003
  +6.45000000000e-003
  +6.50000000000e-003
  +6.55000000000e-003
  +6.60000000000e-003
  +6.65000000000e-003
  +6.70000000000e-003
  +6.75000000000e-003
  +6.80000000000e-003
  +6.85000000000e-003
  +6.90000000000e-003
  +6.95000000000e-003
  +7.00000000000e-003
  +7.05000000000e-003
  +7.10000000000e-003
  +7.15000000000e-003
  +7.20000000000e-003
  +7.25000000000e-003
  +7.30000000000e-003
  +7.35000000000e-003
  +7.40000000000e-003
  +7.45000000000e-003
  +7.50000000000e-003
  +7.55000000000e-003
  +7.60000000000e-003
  +7.65000000000e-003
  +7.70000000000e-003
  +7.75000000000e-003
  +7.80000000000e-003
  +7.85000000000e-003
  +7.90000000000e-003
  +7.95000000000e-003
  +8.00000000000e-003
  +8.05000000000e-003
  +8.10000000000e-003
  +8.15000000000e-003
  +8.20000000000e-003
  +8.25000000000e-003
  +8.30000000000e-003
  +8.35000000000e-003
  +8.40000000000e-003
  +8.45000000000e-003
  +8.50000000000e-003
  +8.55000000000e-003
  +8.60000000000e-003
  +8.65000000000e-003
  +8.70000000000e-003
  +8.75000000000e-003
  +8.80000000000e-003
  +8.85000000000e-003
  +8.90000000000e-003
  +8.95000000000e-003
  +9.00000000000e-003
  +9.05000000000e-003
  +9.10000000000e-003
  +9.15000000000e-003
  +9.20000000000e-003
  +9.25000000000e-003
  +9.30000000000e-003
  +9.35000000000e-003
  +9.40000000000e-003
  +9.45000000000e-003
  +9.50000000000e-003
  +9.55000000000e-003
  +9.60000000000e-003
  +9.65000000000e-003
  +9.70000000000e-003
  +9.75000000000e-003
  +9.80000000000e-003
  +9.85000000000e-003
  +9.90000000000e-003
  +9.95000000000e-003
  +1.00000000000e-002
</indep>
<dep A_v time>
  -inf-jnan
  -1.93026745903e+001
  -1.82769754655e+001
  -1.72007238044e+001
  -1.60031750911e+001
  -1.45801973206e+001
  -1.27354638209e+001
  -1.00272506169e+001
  -5.14640960126e+000
  +8.44105019970e+000
  +6.69819175823e+016
  -4.26839282530e+001
  -2.90457119931e+001
  -2.40604173509e+001
  -2.11621918803e+001
  -1.89763804343e+001
  -1.69325451747e+001
  -1.45370272272e+001
  -1.07934598286e+001
  -1.17914239058e+000
  +2.28749584146e+016
  -3.55028867015e+001
  -2.58715371887e+001
  -2.21111529205e+001
  -1.97141449377e+001
  -1.77096013508e+001
  -1.56487471000e+001
  -1.30563070192e+001
  -8.83035823124e+000
  +2.24751886891e+000
  +1.77202038223e+016
  -3.78336581852e+001
  -2.67833199444e+001
  -2.25986078713e+001
  -2.00535388097e+001
  -1.80341294732e+001
  -1.60455833420e+001
  -1.36026412379e+001
  -9.64094553693e+000
  +7.83532793512e-001
  +1.25439869694e+016
  -3.70668479644e+001
  -2.66043361743e+001
  -2.25848161905e+001
  -2.00719839374e+001
  -1.80113671924e+001
  -1.59297108061e+001
  -1.33484736717e+001
  -9.18584240457e+000
  +1.64987523144e+000
  +1.03654164010e+016
  -3.73658668975e+001
  -2.65652638480e+001
  -2.24578429560e+001
  -1.99468998675e+001
  -1.79436065628e+001
  -1.59604725856e+001
  -1.35130660576e+001
  -9.53051819675e+000
  +9.71609419606e-001
  +8.43341847572e+015
  -3.72171567115e+001
  -2.66748177559e+001
  -2.26304129318e+001
  -2.01064650117e+001
  -1.80404779877e+001
  -1.59568497919e+001
  -1.33767360772e+001
  -9.22028668003e+000
  +1.59185915394e+000
  +7.38533701088e+015
  -3.73202546972e+001
  -2.65439468197e+001
  -2.24440421033e+001
  -1.99364113514e+001
  -1.79346716661e+001
  -1.59520390423e+001
  -1.35041517114e+001
  -9.51947587260e+000
  +9.90516986605e-001
  +6.33043093811e+015
  -3.72324591735e+001
  -2.66820469609e+001
  -2.26351289714e+001
  -2.01100649110e+001
  -1.80435492327e+001
  -1.59597467178e+001
  -1.33797925112e+001
  -9.22406593811e+000
  +1.58539100175e+000
  -2.58270288220e+015
  -3.73149789016e+001
  -2.65414291112e+001
  -2.24423748640e+001
  -1.99351130511e+001
  -1.79335364005e+001
  -1.59509370573e+001
  -1.35029514654e+001
  -9.51794064604e+000
  +9.93237559490e-001
  +5.06498568454e+015
  -3.72348349924e+001
  -2.66832174309e+001
  -2.26359274051e+001
  -2.01107039315e+001
  -1.80441223448e+001
  -1.59603164024e+001
  -1.33804273370e+001
  -9.22489660134e+000
  +1.58388422087e+000
  +1.29161769174e+015
  -3.73135943058e+001
  -2.65407273934e+001
  -2.24418814691e+001
  -1.99347053111e+001
  -1.79331583233e+001
  -1.59505482563e+001
  -1.35025032926e+001
  -9.51733460079e+000
  +9.94371701410e-001
  +4.22105626260e+015
  -3.72359355433e+001
  -2.66837878291e+001
  -2.26363361075e+001
  -2.01110469220e+001
  -1.80444442807e+001
  -1.59606506032e+001
  -1.33808153759e+001
  -9.22542435976e+000
  +1.58289168221e+000
  -3.22755029716e+015
  -3.73126215310e+001
  -2.65402201956e+001
  -2.24415154756e+001
  -1.99343956209e+001
  -1.79328649185e+001
  -1.59502405642e+001
  -1.35021422332e+001
  -9.51683834987e+000
  +9.95314270970e-001
  +3.61821781470e+015
  -3.72368742609e+001
  -2.66842798919e+001
  -2.26366923386e+001
  -2.01113486963e+001
  -1.80447299510e+001
  -1.59609494451e+001
  -1.33811647691e+001
  -9.22590251625e+000
  +1.58198742893e+000
  +1.17411956268e+015
  -3.73117269771e+001
  -2.65397519596e+001
  -2.24411764248e+001
  -1.99341078438e+001
  -1.79325915253e+001
  -1.59499531540e+001
  -1.35018042320e+001
  -9.51637287584e+000
  +9.96199945244e-001
  +3.16608024263e+015
  -3.72377589680e+001
  -2.66847442314e+001
  -2.26370288803e+001
  -2.01116340789e+001
  -1.80450003460e+001
  -1.59612325312e+001
  -1.33814959722e+001
  -9.22635605505e+000
  +1.58112927196e+000
  -4.30204085072e+015
  -3.73108772765e+001
  -2.65393070372e+001
  -2.24408541476e+001
  -1.99338342197e+001
  -1.79323315028e+001
  -1.59496797270e+001
  -1.35014825959e+001
  -9.51592983877e+000
  +9.97043098285e-001
  -1.26578487418e+015
  -3.72386014729e+001
  -2.66851864757e+001
  -2.26373494394e+001
  -2.01119059295e+001
  -1.80452579346e+001
  -1.59615022208e+001
  -1.33818115090e+001
  -9.22678814592e+000
  +1.58031169733e+000
  +1.07621119826e+015
  -3.73100677679e+001
  -2.65388831607e+001
  -2.24405471122e+001
  -1.99335735306e+001
  -1.79320837641e+001
  -1.59494192057e+001
  -1.35011761258e+001
  -9.51550767140e+000
  +9.97846567551e-001
  +2.53307194772e+015
</dep>
<dep Vgs time>
  +6.99998551214e-001
  +7.02926010715e-001
  +7.05264969633e-001
  +7.06819208058e-001
  +7.07466238331e-001
  +7.07170618560e-001
  +7.05985072891e-001
  +7.04046670286e-001
  +7.01563650197e-001
  +6.98793768169e-001
  +6.96021796474e-001
  +6.93530688365e-001
  +6.91575158875e-001
  +6.90357028334e-001
  +6.90005545273e-001
  +6.90564465729e-001
  +6.91987325092e-001
  +6.94141608603e-001
  +6.96821623251e-001
  +6.99768887834e-001
  +7.02697957929e-001
  +7.05324914796e-001
  +7.07395254429e-001
  +7.08710131939e-001
  +7.09144621554e-001
  +7.08659927705e-001
  +7.07306778849e-001
  +7.05220115893e-001
  +7.02605719371e-001
  +6.99720155144e-001
  +6.96845998351e-001
  +6.94264667292e-001
  +6.92229356006e-001
  +6.90940523577e-001
  +6.90526211777e-001
  +6.91029126560e-001
  +6.92401906512e-001
  +6.94511284087e-001
  +6.97150943454e-001
  +7.00061893478e-001
  +7.02958273377e-001
  +7.05555865130e-001
  +7.07600311174e-001
  +7.08892142890e-001
  +7.09306151747e-001
  +7.08803285215e-001
  +7.07434033876e-001
  +7.05333118759e-001
  +7.02706117634e-001
  +6.99809409913e-001
  +6.96925399923e-001
  +6.94335350369e-001
  +6.92292314777e-001
  +6.90996626852e-001
  +6.90576218145e-001
  +6.91073699297e-001
  +6.92441627754e-001
  +6.94546667727e-001
  +6.97182446269e-001
  +7.00089924236e-001
  +7.02983199901e-001
  +7.05578019574e-001
  +7.07619993903e-001
  +7.08909625397e-001
  +7.09321678973e-001
  +7.08817077555e-001
  +7.07446289002e-001
  +7.05344013346e-001
  +7.02715808999e-001
  +6.99818037570e-001
  +6.96933087079e-001
  +6.94342205370e-001
  +6.92298432547e-001
  +6.91002090332e-001
  +6.90581099739e-001
  +6.91078062293e-001
  +6.92445527684e-001
  +6.94550153594e-001
  +6.97185561622e-001
  +7.00092708042e-001
  +7.02985687223e-001
  +7.05580242084e-001
  +7.07621980248e-001
  +7.08911401480e-001
  +7.09323268174e-001
  +7.08818500921e-001
  +7.07447565421e-001
  +7.05345159709e-001
  +7.02716840354e-001
  +6.99818967271e-001
  +6.96933926922e-001
  +6.94342965729e-001
  +6.92299122508e-001
  +6.91002717823e-001
  +6.90581671669e-001
  +6.91078584685e-001
  +6.92446005806e-001
  +6.94550592083e-001
  +6.97185964589e-001
  +7.00093079162e-001
  +7.02986029805e-001
  +7.05580559122e-001
  +7.07622274459e-001
  +7.08911675332e-001
  +7.09323523904e-001
  +7.08818740552e-001
  +7.07447790778e-001
  +7.05345372434e-001
  +7.02717041920e-001
  +6.99819158990e-001
  +6.96934109958e-001
  +6.94343141106e-001
  +6.92299291119e-001
  +6.91002880439e-001
  +6.90581828949e-001
  +6.91078737187e-001
  +6.92446154003e-001
  +6.94550736379e-001
  +6.97186105335e-001
  +7.00093216665e-001
  +7.02986164346e-001
  +7.05580690960e-001
  +7.07622403837e-001
  +7.08911802481e-001
  +7.09323649043e-001
  +7.08818863889e-001
  +7.07447912510e-001
  +7.05345492747e-001
  +7.02717160988e-001
  +6.99819276976e-001
  +6.96934227010e-001
  +6.94343257356e-001
  +6.92299406676e-001
  +6.91002995391e-001
  +6.90581943357e-001
  +6.91078851091e-001
  +6.92446267419e-001
  +6.94550849308e-001
  +6.97186217768e-001
  +7.00093328592e-001
  +7.02986275759e-001
  +7.05580801858e-001
  +7.07622514228e-001
  +7.08911912382e-001
  +7.09323758481e-001
  +7.08818972898e-001
  +7.07448021130e-001
  +7.05345601025e-001
  +7.02717268973e-001
  +6.99819384720e-001
  +6.96934334563e-001
  +6.94343364762e-001
  +6.92299513971e-001
  +6.91003102597e-001
  +6.90582050478e-001
  +6.91078958116e-001
  +6.92446374322e-001
  +6.94550956053e-001
  +6.97186324315e-001
  +7.00093434900e-001
  +7.02986381794e-001
  +7.05580907595e-001
  +7.07622619654e-001
  +7.08912017493e-001
  +7.09323863285e-001
  +7.08819077412e-001
  +7.07448125380e-001
  +7.05345705041e-001
  +7.02717372793e-001
  +6.99819488384e-001
  +6.96934438110e-001
  +6.94343468228e-001
  +6.92299617382e-001
  +6.91003205967e-001
  +6.90582153809e-001
  +6.91079061391e-001
  +6.92446477513e-001
  +6.94551059122e-001
  +6.97186427218e-001
  +7.00093537596e-001
  +7.02986484247e-001
  +7.05581009779e-001
  +7.07622721553e-001
  +7.08912119103e-001
  +7.09323964612e-001
  +7.08819178470e-001
  +7.07448226192e-001
  +7.05345805638e-001
  +7.02717473208e-001
  +6.99819588655e-001
  +6.96934538274e-001
  +6.94343568319e-001
  +6.92299717425e-001
  +6.91003305977e-001
  +6.90582253783e-001
  +6.91079161315e-001
  +6.92446577359e-001
  +6.94551158852e-001
  +6.97186526790e-001
  +7.00093636970e-001
  +7.02986583388e-001
</dep>
<dep Vds time>
  +1.24062064782e+000
  +1.18077370699e+000
  +1.13244573615e+000
  +1.09991591763e+000
  +1.08593052700e+000
  +1.09137069219e+000
  +1.11520266429e+000
  +1.15457069681e+000
  +1.20511339272e+000
  +1.26146970556e+000
  +1.31780037162e+000
  +1.36840533391e+000
  +1.40824609743e+000
  +1.43338492515e+000
  +1.44129981898e+000
  +1.43107740235e+000
  +1.40348965082e+000
  +1.36095324112e+000
  +1.30735863919e+000
  +1.24775437377e+000
  +1.18788830474e+000
  +1.13363892405e+000
  +1.09040486539e+000
  +1.06249646115e+000
  +1.05268448497e+000
  +1.06189329635e+000
  +1.08910781019e+000
  +1.13149631570e+000
  +1.18473058249e+000
  +1.24346039344e+000
  +1.30187979845e+000
  +1.35431219758e+000
  +1.39574579318e+000
  +1.42227010071e+000
  +1.43139072956e+000
  +1.42222140759e+000
  +1.39555957069e+000
  +1.35384454844e+000
  +1.30098574692e+000
  +1.24204648445e+000
  +1.18278538193e+000
  +1.12908740770e+000
  +1.08634737151e+000
  +1.05888610999e+000
  +1.04947790345e+000
  +1.05905012867e+000
  +1.08659052526e+000
  +1.12927008326e+000
  +1.18276316253e+000
  +1.24172203865e+000
  +1.30034319273e+000
  +1.35295244849e+000
  +1.39454047314e+000
  +1.42119930647e+000
  +1.43043711259e+000
  +1.42137012893e+000
  +1.39479815040e+000
  +1.35316260831e+000
  +1.30037467363e+000
  +1.24149906040e+000
  +1.18229543489e+000
  +1.12864951942e+000
  +1.08595666462e+000
  +1.05853811141e+000
  +1.04916846796e+000
  +1.05877540092e+000
  +1.08634692084e+000
  +1.12905427643e+000
  +1.18257207521e+000
  +1.24155283072e+000
  +1.30019325579e+000
  +1.35281940488e+000
  +1.39442217975e+000
  +1.42109386053e+000
  +1.43034285487e+000
  +1.42128563985e+000
  +1.39472223613e+000
  +1.35309427658e+000
  +1.30031310177e+000
  +1.24144356005e+000
  +1.18224541834e+000
  +1.12860447150e+000
  +1.08591612198e+000
  +1.05850164928e+000
  +1.04913569273e+000
  +1.05874594642e+000
  +1.08632044654e+000
  +1.12903046625e+000
  +1.18255063634e+000
  +1.24153349255e+000
  +1.30017576914e+000
  +1.35280354173e+000
  +1.39440773364e+000
  +1.42108064721e+000
  +1.43033071300e+000
  +1.42127443100e+000
  +1.39471184398e+000
  +1.35308460493e+000
  +1.30030407170e+000
  +1.24143510648e+000
  +1.18223748662e+000
  +1.12859701441e+000
  +1.08590909743e+000
  +1.05849501885e+000
  +1.04912942078e+000
  +1.05873999972e+000
  +1.08631479412e+000
  +1.12902507917e+000
  +1.18254548758e+000
  +1.24152855669e+000
  +1.30017102212e+000
  +1.35279896073e+000
  +1.39440329704e+000
  +1.42107633488e+000
  +1.43032650659e+000
  +1.42127031447e+000
  +1.39470780389e+000
  +1.35308063065e+000
  +1.30030015529e+000
  +1.24143124232e+000
  +1.18223367088e+000
  +1.12859324446e+000
  +1.08590537132e+000
  +1.05849133492e+000
  +1.04912577751e+000
  +1.05873639561e+000
  +1.08631122765e+000
  +1.12902154881e+000
  +1.18254199160e+000
  +1.24152509306e+000
  +1.30016758830e+000
  +1.35279555347e+000
  +1.39439991247e+000
  +1.42107296857e+000
  +1.43032315397e+000
  +1.42126697124e+000
  +1.39470446653e+000
  +1.35307729673e+000
  +1.30029682365e+000
  +1.24142791299e+000
  +1.18223034486e+000
  +1.12858992329e+000
  +1.08590205681e+000
  +1.05848802889e+000
  +1.04912248161e+000
  +1.05873311130e+000
  +1.08630795619e+000
  +1.12901829121e+000
  +1.18253874855e+000
  +1.24152186475e+000
  +1.30016437422e+000
  +1.35279235232e+000
  +1.39439672209e+000
  +1.42106978614e+000
  +1.43031997631e+000
  +1.42126379528e+000
  +1.39470128974e+000
  +1.35307411753e+000
  +1.30029364154e+000
  +1.24142472853e+000
  +1.18222715944e+000
  +1.12858673881e+000
  +1.08589887538e+000
  +1.05848485256e+000
  +1.04911931229e+000
  +1.05872995069e+000
  +1.08630480577e+000
  +1.12901515219e+000
  +1.18253562183e+000
  +1.24151875070e+000
  +1.30016127255e+000
  +1.35278926194e+000
  +1.39439364107e+000
  +1.42106671188e+000
  +1.43031690587e+000
  +1.42126072577e+000
  +1.39469821882e+000
  +1.35307104373e+000
  +1.30029056445e+000
  +1.24142164873e+000
  +1.18222407832e+000
  +1.12858365824e+000
  +1.08589579744e+000
  +1.05848177928e+000
  +1.04911624553e+000
  +1.05872689211e+000
  +1.08630175683e+000
  +1.12901211410e+000
  +1.18253259545e+000
  +1.24151573644e+000
  +1.30015827014e+000
  +1.35278627033e+000
  +1.39439065841e+000
  +1.42106373568e+000
  +1.43031393329e+000
  +1.42125775403e+000
  +1.39469524567e+000
  +1.35306806775e+000
  +1.30028758523e+000
  +1.24141866686e+000
  +1.18222109514e+000
</dep>
<dep Ids.It time>
  +1.25312645170e-003
  +1.28296984434e-003
  +1.30691317136e-003
  +1.32285480378e-003
  +1.32946807271e-003
  +1.32636349269e-003
  +1.31410746729e-003
  +1.29417166169e-003
  +1.26877065953e-003
  +1.24060503199e-003
  +1.21259999107e-003
  +1.18759567949e-003
  +1.16808758803e-003
  +1.15600942296e-003
  +1.15257909709e-003
  +1.15820637154e-003
  +1.17245886147e-003
  +1.19408671442e-003
  +1.22111208009e-003
  +1.25099029412e-003
  +1.28084150228e-003
  +1.30773586395e-003
  +1.32899792727e-003
  +1.34250917499e-003
  +1.34692946746e-003
  +1.34184603182e-003
  +1.32781493900e-003
  +1.30629477102e-003
  +1.27948230361e-003
  +1.25007208723e-003
  +1.22097158630e-003
  +1.19500844525e-003
  +1.17466404549e-003
  +1.16185778669e-003
  +1.15779317495e-003
  +1.16286589464e-003
  +1.17663038296e-003
  +1.19782508518e-003
  +1.22446237007e-003
  +1.25398992392e-003
  +1.28352230413e-003
  +1.31012628216e-003
  +1.33112838882e-003
  +1.34440454361e-003
  +1.34861271222e-003
  +1.34333848465e-003
  +1.32913640054e-003
  +1.30746358155e-003
  +1.28051540692e-003
  +1.25098508754e-003
  +1.22177878679e-003
  +1.19572285950e-003
  +1.17529738437e-003
  +1.16242043624e-003
  +1.15829418872e-003
  +1.16331302375e-003
  +1.17703015844e-003
  +1.19818295309e-003
  +1.22478286544e-003
  +1.25427685995e-003
  +1.28377895083e-003
  +1.31035551474e-003
  +1.33133279614e-003
  +1.34458649796e-003
  +1.34877440866e-003
  +1.34348196107e-003
  +1.32926354797e-003
  +1.30757615121e-003
  +1.28061501650e-003
  +1.25107322684e-003
  +1.22185682162e-003
  +1.19579203286e-003
  +1.17535881528e-003
  +1.16247511755e-003
  +1.15834298624e-003
  +1.16335667892e-003
  +1.17706929594e-003
  +1.19821809355e-003
  +1.22481444197e-003
  +1.25430523620e-003
  +1.28380443820e-003
  +1.31037838664e-003
  +1.33135329857e-003
  +1.34460485625e-003
  +1.34879083131e-003
  +1.34349664168e-003
  +1.32927666625e-003
  +1.30758787364e-003
  +1.28062549701e-003
  +1.25108260742e-003
  +1.22186523274e-003
  +1.19579959372e-003
  +1.17536563365e-003
  +1.16248128952e-003
  +1.15834859594e-003
  +1.16336179856e-003
  +1.17707398632e-003
  +1.19822240508e-003
  +1.22481841617e-003
