<Qucs Dataset 0.0.18>
<indep time 201>
  +0.00000000000e+000
  +2.50000000000e-005
  +5.00000000000e-005
  +7.50000000000e-005
  +1.00000000000e-004
  +1.25000000000e-004
  +1.50000000000e-004
  +1.75000000000e-004
  +2.00000000000e-004
  +2.25000000000e-004
  +2.50000000000e-004
  +2.75000000000e-004
  +3.00000000000e-004
  +3.25000000000e-004
  +3.50000000000e-004
  +3.75000000000e-004
  +4.00000000000e-004
  +4.25000000000e-004
  +4.50000000000e-004
  +4.75000000000e-004
  +5.00000000000e-004
  +5.25000000000e-004
  +5.50000000000e-004
  +5.75000000000e-004
  +6.00000000000e-004
  +6.25000000000e-004
  +6.50000000000e-004
  +6.75000000000e-004
  +7.00000000000e-004
  +7.25000000000e-004
  +7.50000000000e-004
  +7.75000000000e-004
  +8.00000000000e-004
  +8.25000000000e-004
  +8.50000000000e-004
  +8.75000000000e-004
  +9.00000000000e-004
  +9.25000000000e-004
  +9.50000000000e-004
  +9.75000000000e-004
  +1.00000000000e-003
  +1.02500000000e-003
  +1.05000000000e-003
  +1.07500000000e-003
  +1.10000000000e-003
  +1.12500000000e-003
  +1.15000000000e-003
  +1.17500000000e-003
  +1.20000000000e-003
  +1.22500000000e-003
  +1.25000000000e-003
  +1.27500000000e-003
  +1.30000000000e-003
  +1.32500000000e-003
  +1.35000000000e-003
  +1.37500000000e-003
  +1.40000000000e-003
  +1.42500000000e-003
  +1.45000000000e-003
  +1.47500000000e-003
  +1.50000000000e-003
  +1.52500000000e-003
  +1.55000000000e-003
  +1.57500000000e-003
  +1.60000000000e-003
  +1.62500000000e-003
  +1.65000000000e-003
  +1.67500000000e-003
  +1.70000000000e-003
  +1.72500000000e-003
  +1.75000000000e-003
  +1.77500000000e-003
  +1.80000000000e-003
  +1.82500000000e-003
  +1.85000000000e-003
  +1.87500000000e-003
  +1.90000000000e-003
  +1.92500000000e-003
  +1.95000000000e-003
  +1.97500000000e-003
  +2.00000000000e-003
  +2.02500000000e-003
  +2.05000000000e-003
  +2.07500000000e-003
  +2.10000000000e-003
  +2.12500000000e-003
  +2.15000000000e-003
  +2.17500000000e-003
  +2.20000000000e-003
  +2.22500000000e-003
  +2.25000000000e-003
  +2.27500000000e-003
  +2.30000000000e-003
  +2.32500000000e-003
  +2.35000000000e-003
  +2.37500000000e-003
  +2.40000000000e-003
  +2.42500000000e-003
  +2.45000000000e-003
  +2.47500000000e-003
  +2.50000000000e-003
  +2.52500000000e-003
  +2.55000000000e-003
  +2.57500000000e-003
  +2.60000000000e-003
  +2.62500000000e-003
  +2.65000000000e-003
  +2.67500000000e-003
  +2.70000000000e-003
  +2.72500000000e-003
  +2.75000000000e-003
  +2.77500000000e-003
  +2.80000000000e-003
  +2.82500000000e-003
  +2.85000000000e-003
  +2.87500000000e-003
  +2.90000000000e-003
  +2.92500000000e-003
  +2.95000000000e-003
  +2.97500000000e-003
  +3.00000000000e-003
  +3.02500000000e-003
  +3.05000000000e-003
  +3.07500000000e-003
  +3.10000000000e-003
  +3.12500000000e-003
  +3.15000000000e-003
  +3.17500000000e-003
  +3.20000000000e-003
  +3.22500000000e-003
  +3.25000000000e-003
  +3.27500000000e-003
  +3.30000000000e-003
  +3.32500000000e-003
  +3.35000000000e-003
  +3.37500000000e-003
  +3.40000000000e-003
  +3.42500000000e-003
  +3.45000000000e-003
  +3.47500000000e-003
  +3.50000000000e-003
  +3.52500000000e-003
  +3.55000000000e-003
  +3.57500000000e-003
  +3.60000000000e-003
  +3.62500000000e-003
  +3.65000000000e-003
  +3.67500000000e-003
  +3.70000000000e-003
  +3.72500000000e-003
  +3.75000000000e-003
  +3.77500000000e-003
  +3.80000000000e-003
  +3.82500000000e-003
  +3.85000000000e-003
  +3.87500000000e-003
  +3.90000000000e-003
  +3.92500000000e-003
  +3.95000000000e-003
  +3.97500000000e-003
  +4.00000000000e-003
  +4.02500000000e-003
  +4.05000000000e-003
  +4.07500000000e-003
  +4.10000000000e-003
  +4.12500000000e-003
  +4.15000000000e-003
  +4.17500000000e-003
  +4.20000000000e-003
  +4.22500000000e-003
  +4.25000000000e-003
  +4.27500000000e-003
  +4.30000000000e-003
  +4.32500000000e-003
  +4.35000000000e-003
  +4.37500000000e-003
  +4.40000000000e-003
  +4.42500000000e-003
  +4.45000000000e-003
  +4.47500000000e-003
  +4.50000000000e-003
  +4.52500000000e-003
  +4.55000000000e-003
  +4.57500000000e-003
  +4.60000000000e-003
  +4.62500000000e-003
  +4.65000000000e-003
  +4.67500000000e-003
  +4.70000000000e-003
  +4.72500000000e-003
  +4.75000000000e-003
  +4.77500000000e-003
  +4.80000000000e-003
  +4.82500000000e-003
  +4.85000000000e-003
  +4.87500000000e-003
  +4.90000000000e-003
  +4.92500000000e-003
  +4.95000000000e-003
  +4.97500000000e-003
  +5.00000000000e-003
</indep>
<dep V1.It time>
  +0.00000000000e+000
  +3.14243230664e-011
  +6.28733581639e-011
  +9.42409529903e-011
  +1.25169021857e-010
  +1.54953416025e-010
  +1.82504883110e-010
  +2.06399770872e-010
  +2.25045611849e-010
  +2.36952834073e-010
  +2.41051921611e-010
  +2.36952834073e-010
  +2.25045611849e-010
  +2.06399770872e-010
  +1.82504883110e-010
  +1.54953416027e-010
  +1.25169021857e-010
  +9.42409529903e-011
  +6.28733581639e-011
  +3.14243230659e-011
  +2.44920168641e-026
  -3.14243230659e-011
  -6.28733581639e-011
  -9.42409529899e-011
  -1.25169021857e-010
  -1.54953416025e-010
  -1.82504883110e-010
  -2.06399770872e-010
  -2.25045611849e-010
  -2.36952834073e-010
  -2.41051921611e-010
  -2.36952834073e-010
  -2.25045611849e-010
  -2.06399770872e-010
  -1.82504883110e-010
  -1.54953416027e-010
  -1.25169021857e-010
  -9.42409529903e-011
  -6.28733581639e-011
  -3.14243230659e-011
  -4.89840337281e-026
  +3.14243230659e-011
  +6.28733581639e-011
  +9.42409529903e-011
  +1.25169021857e-010
  +1.54953416025e-010
  +1.82504883110e-010
  +2.06399770868e-010
  +2.25045611849e-010
  +2.36952834073e-010
  +2.41051921611e-010
  +2.36952834073e-010
  +2.25045611849e-010
  +2.06399770872e-010
  +1.82504883110e-010
  +1.54953416025e-010
  +1.25169021857e-010
  +9.42409529903e-011
  +6.28733581639e-011
  +3.14243230659e-011
  +7.34760505922e-026
  -3.14243230659e-011
  -6.28733581638e-011
  -9.42409529903e-011
  -1.25169021857e-010
  -1.54953416025e-010
  -1.82504883110e-010
  -2.06399770868e-010
  -2.25045611849e-010
  -2.36952834073e-010
  -2.41051921611e-010
  -2.36952834073e-010
  -2.25045611849e-010
  -2.06399770868e-010
  -1.82504883110e-010
  -1.54953416027e-010
  -1.25169021857e-010
  -9.42409529903e-011
  -6.28733581639e-011
  -3.14243230659e-011
  -9.79680674562e-026
  +3.14243230659e-011
  +6.28733581639e-011
  +9.42409529899e-011
  +1.25169021857e-010
  +1.54953416025e-010
  +1.82504883110e-010
  +2.06399770868e-010
  +2.25045611849e-010
  +2.36952834073e-010
  +2.41051921611e-010
  +2.36952834073e-010
  +2.25045611849e-010
  +2.06399770868e-010
  +1.82504883110e-010
  +1.54953416027e-010
  +1.25169021857e-010
  +9.42409529903e-011
  +6.28733581639e-011
  +3.14243230659e-011
  +1.22460084320e-025
  -3.14243230659e-011
  -6.28733581639e-011
  -9.42409529903e-011
  -1.25169021857e-010
  -1.54953416025e-010
  -1.82504883110e-010
  -2.06399770868e-010
  -2.25045611849e-010
  -2.36952834073e-010
  -2.41051921611e-010
  -2.36952834073e-010
  -2.25045611849e-010
  -2.06399770872e-010
  -1.82504883110e-010
  -1.54953416025e-010
  -1.25169021857e-010
  -9.42409529903e-011
  -6.28733581639e-011
  -3.14243230659e-011
  -1.46952101184e-025
  +3.14243230659e-011
  +6.28733581639e-011
  +9.42409529903e-011
  +1.25169021857e-010
  +1.54953416025e-010
  +1.82504883110e-010
  +2.06399770868e-010
  +2.25045611849e-010
  +2.36952834073e-010
  +2.41051921611e-010
  +2.36952834073e-010
  +2.25045611849e-010
  +2.06399770872e-010
  +1.82504883110e-010
  +1.54953416025e-010
  +1.25169021857e-010
  +9.42409529903e-011
  +6.28733581639e-011
  +3.14243230659e-011
  +1.71444118048e-025
  -3.14243230659e-011
  -6.28733581639e-011
  -9.42409529903e-011
  -1.25169021857e-010
  -1.54953416025e-010
  -1.82504883110e-010
  -2.06399770872e-010
  -2.25045611849e-010
  -2.36952834073e-010
  -2.41051921611e-010
  -2.36952834050e-010
  -2.25045611849e-010
  -2.06399770872e-010
  -1.82504883110e-010
  -1.54953416025e-010
  -1.25169021857e-010
  -9.42409529903e-011
  -6.28733581638e-011
  -3.14243230659e-011
  -1.95936134912e-025
  +3.14243230659e-011
  +6.28733581639e-011
  +9.42409529903e-011
  +1.25169021857e-010
  +1.54953416025e-010
  +1.82504883110e-010
  +2.06399770872e-010
  +2.25045611849e-010
  +2.36952834073e-010
  +2.41051921611e-010
  +2.36952834050e-010
  +2.25045611849e-010
  +2.06399770872e-010
  +1.82504883110e-010
  +1.54953416027e-010
  +1.25169021857e-010
  +9.42409529903e-011
  +6.28733581639e-011
  +3.14243230659e-011
  -4.90111386604e-025
  -3.14243230659e-011
  -6.28733581638e-011
  -9.42409529903e-011
  -1.25169021857e-010
  -1.54953416025e-010
  -1.82504883110e-010
  -2.06399770868e-010
  -2.25045611849e-010
  -2.36952834073e-010
  -2.41051921611e-010
  -2.36952834073e-010
  -2.25045611849e-010
  -2.06399770872e-010
  -1.82504883110e-010
  -1.54953416027e-010
  -1.25169021857e-010
  -9.42409529903e-011
  -6.28733581639e-011
  -3.14243230659e-011
  -2.44920168641e-025
</dep>
<dep V2.It time>
  +0.00000000000e+000
  -9.38606006318e-005
  -1.85410040754e-004
  -2.72394068475e-004
  -3.52670847839e-004
  -4.24263698067e-004
  -4.85409766051e-004
  -5.34603433605e-004
  -5.70633390610e-004
  -5.92612461208e-004
  -5.99999448673e-004
  -5.92612461208e-004
  -5.70633390610e-004
  -5.34603433605e-004
  -4.85409766051e-004
  -4.24263698067e-004
  -3.52670847839e-004
  -2.72394068475e-004
  -1.85410040754e-004
  -9.38606006318e-005
  -7.34763199992e-020
  +9.38606006318e-005
  +1.85410040754e-004
  +2.72394068475e-004
  +3.52670847839e-004
  +4.24263698067e-004
  +4.85409766051e-004
  +5.34603433605e-004
  +5.70633390610e-004
  +5.92612461208e-004
  +5.99999448673e-004
  +5.92612461208e-004
  +5.70633390610e-004
  +5.34603433605e-004
  +4.85409766051e-004
  +4.24263698067e-004
  +3.52670847839e-004
  +2.72394068475e-004
  +1.85410040754e-004
  +9.38606006318e-005
  +1.46952639998e-019
  -9.38606006318e-005
  -1.85410040754e-004
  -2.72394068475e-004
  -3.52670847839e-004
  -4.24263698067e-004
  -4.85409766051e-004
  -5.34603433605e-004
  -5.70633390610e-004
  -5.92612461208e-004
  -5.99999448673e-004
  -5.92612461208e-004
  -5.70633390610e-004
  -5.34603433605e-004
  -4.85409766051e-004
  -4.24263698067e-004
  -3.52670847839e-004
  -2.72394068475e-004
  -1.85410040754e-004
  -9.38606006318e-005
  -2.20428959998e-019
  +9.38606006318e-005
  +1.85410040754e-004
  +2.72394068475e-004
  +3.52670847839e-004
  +4.24263698067e-004
  +4.85409766051e-004
  +5.34603433605e-004
  +5.70633390610e-004
  +5.92612461208e-004
  +5.99999448673e-004
  +5.92612461208e-004
  +5.70633390610e-004
  +5.34603433605e-004
  +4.85409766051e-004
  +4.24263698067e-004
  +3.52670847839e-004
  +2.72394068475e-004
  +1.85410040754e-004
  +9.38606006318e-005
  +2.93905279997e-019
  -9.38606006317e-005
  -1.85410040754e-004
  -2.72394068475e-004
  -3.52670847839e-004
  -4.24263698067e-004
  -4.85409766051e-004
  -5.34603433605e-004
  -5.70633390610e-004
  -5.92612461208e-004
  -5.99999448673e-004
  -5.92612461208e-004
  -5.70633390610e-004
  -5.34603433605e-004
  -4.85409766051e-004
  -4.24263698067e-004
  -3.52670847839e-004
  -2.72394068475e-004
  -1.85410040754e-004
  -9.38606006318e-005
  -3.67381599996e-019
  +9.38606006317e-005
  +1.85410040754e-004
  +2.72394068475e-004
  +3.52670847839e-004
  +4.24263698067e-004
  +4.85409766051e-004
  +5.34603433605e-004
  +5.70633390610e-004
  +5.92612461208e-004
  +5.99999448673e-004
  +5.92612461208e-004
  +5.70633390610e-004
  +5.34603433605e-004
  +4.85409766051e-004
  +4.24263698067e-004
  +3.52670847839e-004
  +2.72394068475e-004
  +1.85410040754e-004
  +9.38606006317e-005
  +4.40857919995e-019
  -9.38606006318e-005
  -1.85410040754e-004
  -2.72394068475e-004
  -3.52670847839e-004
  -4.24263698067e-004
  -4.85409766051e-004
  -5.34603433605e-004
  -5.70633390610e-004
  -5.92612461208e-004
  -5.99999448673e-004
  -5.92612461208e-004
  -5.70633390610e-004
  -5.34603433605e-004
  -4.85409766051e-004
  -4.24263698067e-004
  -3.52670847839e-004
  -2.72394068475e-004
  -1.85410040754e-004
  -9.38606006317e-005
  -5.14334239994e-019
  +9.38606006318e-005
  +1.85410040754e-004
  +2.72394068475e-004
  +3.52670847839e-004
  +4.24263698067e-004
  +4.85409766051e-004
  +5.34603433605e-004
  +5.70633390610e-004
  +5.92612461208e-004
  +5.99999448673e-004
  +5.92612461208e-004
  +5.70633390610e-004
  +5.34603433605e-004
  +4.85409766051e-004
  +4.24263698067e-004
  +3.52670847839e-004
  +2.72394068475e-004
  +1.85410040754e-004
  +9.38606006317e-005
  +5.87810559994e-019
  -9.38606006318e-005
  -1.85410040754e-004
  -2.72394068475e-004
  -3.52670847839e-004
  -4.24263698067e-004
  -4.85409766051e-004
  -5.34603433605e-004
  -5.70633390610e-004
  -5.92612461208e-004
  -5.99999448673e-004
  -5.92612461208e-004
  -5.70633390610e-004
  -5.34603433605e-004
  -4.85409766051e-004
  -4.24263698067e-004
  -3.52670847839e-004
  -2.72394068475e-004
  -1.85410040754e-004
  -9.38606006318e-005
  +1.47033955094e-018
  +9.38606006318e-005
  +1.85410040754e-004
  +2.72394068475e-004
  +3.52670847839e-004
  +4.24263698067e-004
  +4.85409766051e-004
  +5.34603433605e-004
  +5.70633390610e-004
  +5.92612461208e-004
  +5.99999448673e-004
  +5.92612461208e-004
  +5.70633390610e-004
  +5.34603433605e-004
  +4.85409766051e-004
  +4.24263698067e-004
  +3.52670847839e-004
  +2.72394068475e-004
  +1.85410040754e-004
  +9.38606006317e-005
  +7.34763199992e-019
</dep>
<dep V2.Vt time>
  +0.00000000000e+000
  +6.25737860161e-001
  +1.23606797750e+000
  +1.81596199896e+000
  +2.35114100917e+000
  +2.82842712475e+000
  +3.23606797750e+000
  +3.56402609675e+000
  +3.80422606518e+000
  +3.95075336238e+000
  +4.00000000000e+000
  +3.95075336238e+000
  +3.80422606518e+000
  +3.56402609675e+000
  +3.23606797750e+000
  +2.82842712475e+000
  +2.35114100917e+000
  +1.81596199896e+000
  +1.23606797750e+000
  +6.25737860161e-001
  +4.89842541529e-016
  -6.25737860161e-001
  -1.23606797750e+000
  -1.81596199896e+000
  -2.35114100917e+000
  -2.82842712475e+000
  -3.23606797750e+000
  -3.56402609675e+000
  -3.80422606518e+000
  -3.95075336238e+000
  -4.00000000000e+000
  -3.95075336238e+000
  -3.80422606518e+000
  -3.56402609675e+000
  -3.23606797750e+000
  -2.82842712475e+000
  -2.35114100917e+000
  -1.81596199896e+000
  -1.23606797750e+000
  -6.25737860161e-001
  -9.79685083058e-016
  +6.25737860161e-001
  +1.23606797750e+000
  +1.81596199896e+000
  +2.35114100917e+000
  +2.82842712475e+000
  +3.23606797750e+000
  +3.56402609675e+000
  +3.80422606518e+000
  +3.95075336238e+000
  +4.00000000000e+000
  +3.95075336238e+000
  +3.80422606518e+000
  +3.56402609675e+000
  +3.23606797750e+000
  +2.82842712475e+000
  +2.35114100917e+000
  +1.81596199896e+000
  +1.23606797750e+000
  +6.25737860161e-001
  +1.46952762459e-015
  -6.25737860161e-001
  -1.23606797750e+000
  -1.81596199896e+000
  -2.35114100917e+000
  -2.82842712475e+000
  -3.23606797750e+000
  -3.56402609675e+000
  -3.80422606518e+000
  -3.95075336238e+000
  -4.00000000000e+000
  -3.95075336238e+000
  -3.80422606518e+000
  -3.56402609675e+000
  -3.23606797750e+000
  -2.82842712475e+000
  -2.35114100917e+000
  -1.81596199896e+000
  -1.23606797750e+000
  -6.25737860161e-001
  -1.95937016612e-015
  +6.25737860161e-001
  +1.23606797750e+000
  +1.81596199896e+000
  +2.35114100917e+000
  +2.82842712475e+000
  +3.23606797750e+000
  +3.56402609675e+000
  +3.80422606518e+000
  +3.95075336238e+000
  +4.00000000000e+000
  +3.95075336238e+000
  +3.80422606518e+000
  +3.56402609675e+000
  +3.23606797750e+000
  +2.82842712475e+000
  +2.35114100917e+000
  +1.81596199896e+000
  +1.23606797750e+000
  +6.25737860161e-001
  +2.44921270764e-015
  -6.25737860161e-001
  -1.23606797750e+000
  -1.81596199896e+000
  -2.35114100917e+000
  -2.82842712475e+000
  -3.23606797750e+000
  -3.56402609675e+000
  -3.80422606518e+000
  -3.95075336238e+000
  -4.00000000000e+000
  -3.95075336238e+000
  -3.80422606518e+000
  -3.56402609675e+000
  -3.23606797750e+000
  -2.82842712475e+000
  -2.35114100917e+000
  -1.81596199896e+000
  -1.23606797750e+000
  -6.25737860161e-001
  -2.93905524917e-015
  +6.25737860161e-001
  +1.23606797750e+000
  +1.81596199896e+000
  +2.35114100917e+000
  +2.82842712475e+000
  +3.23606797750e+000
  +3.56402609675e+000
  +3.80422606518e+000
  +3.95075336238e+000
  +4.00000000000e+000
  +3.95075336238e+000
  +3.80422606518e+000
  +3.56402609675e+000
  +3.23606797750e+000
  +2.82842712475e+000
  +2.35114100917e+000
  +1.81596199896e+000
  +1.23606797750e+000
  +6.25737860161e-001
  +3.42889779070e-015
  -6.25737860161e-001
  -1.23606797750e+000
  -1.81596199896e+000
  -2.35114100917e+000
  -2.82842712475e+000
  -3.23606797750e+000
  -3.56402609675e+000
  -3.80422606518e+000
  -3.95075336238e+000
  -4.00000000000e+000
  -3.95075336238e+000
  -3.80422606518e+000
  -3.56402609675e+000
  -3.23606797750e+000
  -2.82842712475e+000
  -2.35114100917e+000
  -1.81596199896e+000
  -1.23606797750e+000
  -6.25737860161e-001
  -3.91874033223e-015
  +6.25737860161e-001
  +1.23606797750e+000
  +1.81596199896e+000
  +2.35114100917e+000
  +2.82842712475e+000
  +3.23606797750e+000
  +3.56402609675e+000
  +3.80422606518e+000
  +3.95075336238e+000
  +4.00000000000e+000
  +3.95075336238e+000
  +3.80422606518e+000
  +3.56402609675e+000
  +3.23606797750e+000
  +2.82842712475e+000
  +2.35114100917e+000
  +1.81596199896e+000
  +1.23606797750e+000
  +6.25737860161e-001
  -9.80227184144e-015
  -6.25737860161e-001
  -1.23606797750e+000
  -1.81596199896e+000
  -2.35114100917e+000
  -2.82842712475e+000
  -3.23606797750e+000
  -3.56402609675e+000
  -3.80422606518e+000
  -3.95075336238e+000
  -4.00000000000e+000
  -3.95075336238e+000
  -3.80422606518e+000
  -3.56402609675e+000
  -3.23606797750e+000
  -2.82842712475e+000
  -2.35114100917e+000
  -1.81596199896e+000
  -1.23606797750e+000
  -6.25737860161e-001
  -4.89842541529e-015
</dep>
<dep V1.Vt time>
  +0.00000000000e+000
  +1.56434465040e-001
  +3.09016994375e-001
  +4.53990499740e-001
  +5.87785252292e-001
  +7.07106781187e-001
  +8.09016994375e-001
  +8.91006524188e-001
  +9.51056516295e-001
  +9.87688340595e-001
  +1.00000000000e+000
  +9.87688340595e-001
  +9.51056516295e-001
  +8.91006524188e-001
  +8.09016994375e-001
  +7.07106781187e-001
  +5.87785252292e-001
  +4.53990499740e-001
  +3.09016994375e-001
  +1.56434465040e-001
  +1.22460635382e-016
  -1.56434465040e-001
  -3.09016994375e-001
  -4.53990499740e-001
  -5.87785252292e-001
  -7.07106781187e-001
  -8.09016994375e-001
  -8.91006524188e-001
  -9.51056516295e-001
  -9.87688340595e-001
  -1.00000000000e+000
  -9.87688340595e-001
  -9.51056516295e-001
  -8.91006524188e-001
  -8.09016994375e-001
  -7.07106781187e-001
  -5.87785252292e-001
  -4.53990499740e-001
  -3.09016994375e-001
  -1.56434465040e-001
  -2.44921270764e-016
  +1.56434465040e-001
  +3.09016994375e-001
  +4.53990499740e-001
  +5.87785252292e-001
  +7.07106781187e-001
  +8.09016994375e-001
  +8.91006524188e-001
  +9.51056516295e-001
  +9.87688340595e-001
  +1.00000000000e+000
  +9.87688340595e-001
  +9.51056516295e-001
  +8.91006524188e-001
  +8.09016994375e-001
  +7.07106781187e-001
  +5.87785252292e-001
  +4.53990499740e-001
  +3.09016994375e-001
  +1.56434465040e-001
  +3.67381906147e-016
  -1.56434465040e-001
  -3.09016994375e-001
  -4.53990499740e-001
  -5.87785252292e-001
  -7.07106781187e-001
  -8.09016994375e-001
  -8.91006524188e-001
  -9.51056516295e-001
  -9.87688340595e-001
  -1.00000000000e+000
  -9.87688340595e-001
  -9.51056516295e-001
  -8.91006524188e-001
  -8.09016994375e-001
  -7.07106781187e-001
  -5.87785252292e-001
  -4.53990499740e-001
  -3.09016994375e-001
  -1.56434465040e-001
  -4.89842541529e-016
  +1.56434465040e-001
  +3.09016994375e-001
  +4.53990499740e-001
  +5.87785252292e-001
  +7.07106781187e-001
  +8.09016994375e-001
  +8.91006524188e-001
  +9.51056516295e-001
  +9.87688340595e-001
  +1.00000000000e+000
  +9.87688340595e-001
  +9.51056516295e-001
  +8.91006524188e-001
  +8.09016994375e-001
  +7.07106781187e-001
  +5.87785252292e-001
  +4.53990499740e-001
