<Qucs Dataset 0.0.18>
<indep time 201>
  +0.00000000000e+000
  +2.50000000000e-005
  +5.00000000000e-005
  +7.50000000000e-005
  +1.00000000000e-004
  +1.25000000000e-004
  +1.50000000000e-004
  +1.75000000000e-004
  +2.00000000000e-004
  +2.25000000000e-004
  +2.50000000000e-004
  +2.75000000000e-004
  +3.00000000000e-004
  +3.25000000000e-004
  +3.50000000000e-004
  +3.75000000000e-004
  +4.00000000000e-004
  +4.25000000000e-004
  +4.50000000000e-004
  +4.75000000000e-004
  +5.00000000000e-004
  +5.25000000000e-004
  +5.50000000000e-004
  +5.75000000000e-004
  +6.00000000000e-004
  +6.25000000000e-004
  +6.50000000000e-004
  +6.75000000000e-004
  +7.00000000000e-004
  +7.25000000000e-004
  +7.50000000000e-004
  +7.75000000000e-004
  +8.00000000000e-004
  +8.25000000000e-004
  +8.50000000000e-004
  +8.75000000000e-004
  +9.00000000000e-004
  +9.25000000000e-004
  +9.50000000000e-004
  +9.75000000000e-004
  +1.00000000000e-003
  +1.02500000000e-003
  +1.05000000000e-003
  +1.07500000000e-003
  +1.10000000000e-003
  +1.12500000000e-003
  +1.15000000000e-003
  +1.17500000000e-003
  +1.20000000000e-003
  +1.22500000000e-003
  +1.25000000000e-003
  +1.27500000000e-003
  +1.30000000000e-003
  +1.32500000000e-003
  +1.35000000000e-003
  +1.37500000000e-003
  +1.40000000000e-003
  +1.42500000000e-003
  +1.45000000000e-003
  +1.47500000000e-003
  +1.50000000000e-003
  +1.52500000000e-003
  +1.55000000000e-003
  +1.57500000000e-003
  +1.60000000000e-003
  +1.62500000000e-003
  +1.65000000000e-003
  +1.67500000000e-003
  +1.70000000000e-003
  +1.72500000000e-003
  +1.75000000000e-003
  +1.77500000000e-003
  +1.80000000000e-003
  +1.82500000000e-003
  +1.85000000000e-003
  +1.87500000000e-003
  +1.90000000000e-003
  +1.92500000000e-003
  +1.95000000000e-003
  +1.97500000000e-003
  +2.00000000000e-003
  +2.02500000000e-003
  +2.05000000000e-003
  +2.07500000000e-003
  +2.10000000000e-003
  +2.12500000000e-003
  +2.15000000000e-003
  +2.17500000000e-003
  +2.20000000000e-003
  +2.22500000000e-003
  +2.25000000000e-003
  +2.27500000000e-003
  +2.30000000000e-003
  +2.32500000000e-003
  +2.35000000000e-003
  +2.37500000000e-003
  +2.40000000000e-003
  +2.42500000000e-003
  +2.45000000000e-003
  +2.47500000000e-003
  +2.50000000000e-003
  +2.52500000000e-003
  +2.55000000000e-003
  +2.57500000000e-003
  +2.60000000000e-003
  +2.62500000000e-003
  +2.65000000000e-003
  +2.67500000000e-003
  +2.70000000000e-003
  +2.72500000000e-003
  +2.75000000000e-003
  +2.77500000000e-003
  +2.80000000000e-003
  +2.82500000000e-003
  +2.85000000000e-003
  +2.87500000000e-003
  +2.90000000000e-003
  +2.92500000000e-003
  +2.95000000000e-003
  +2.97500000000e-003
  +3.00000000000e-003
  +3.02500000000e-003
  +3.05000000000e-003
  +3.07500000000e-003
  +3.10000000000e-003
  +3.12500000000e-003
  +3.15000000000e-003
  +3.17500000000e-003
  +3.20000000000e-003
  +3.22500000000e-003
  +3.25000000000e-003
  +3.27500000000e-003
  +3.30000000000e-003
  +3.32500000000e-003
  +3.35000000000e-003
  +3.37500000000e-003
  +3.40000000000e-003
  +3.42500000000e-003
  +3.45000000000e-003
  +3.47500000000e-003
  +3.50000000000e-003
  +3.52500000000e-003
  +3.55000000000e-003
  +3.57500000000e-003
  +3.60000000000e-003
  +3.62500000000e-003
  +3.65000000000e-003
  +3.67500000000e-003
  +3.70000000000e-003
  +3.72500000000e-003
  +3.75000000000e-003
  +3.77500000000e-003
  +3.80000000000e-003
  +3.82500000000e-003
  +3.85000000000e-003
  +3.87500000000e-003
  +3.90000000000e-003
  +3.92500000000e-003
  +3.95000000000e-003
  +3.97500000000e-003
  +4.00000000000e-003
  +4.02500000000e-003
  +4.05000000000e-003
  +4.07500000000e-003
  +4.10000000000e-003
  +4.12500000000e-003
  +4.15000000000e-003
  +4.17500000000e-003
  +4.20000000000e-003
  +4.22500000000e-003
  +4.25000000000e-003
  +4.27500000000e-003
  +4.30000000000e-003
  +4.32500000000e-003
  +4.35000000000e-003
  +4.37500000000e-003
  +4.40000000000e-003
  +4.42500000000e-003
  +4.45000000000e-003
  +4.47500000000e-003
  +4.50000000000e-003
  +4.52500000000e-003
  +4.55000000000e-003
  +4.57500000000e-003
  +4.60000000000e-003
  +4.62500000000e-003
  +4.65000000000e-003
  +4.67500000000e-003
  +4.70000000000e-003
  +4.72500000000e-003
  +4.75000000000e-003
  +4.77500000000e-003
  +4.80000000000e-003
  +4.82500000000e-003
  +4.85000000000e-003
  +4.87500000000e-003
  +4.90000000000e-003
  +4.92500000000e-003
  +4.95000000000e-003
  +4.97500000000e-003
  +5.00000000000e-003
</indep>
<dep V1.It time>
  +0.00000000000e+000
  -9.41831553115e-018
  -1.87728969047e-017
  -2.80006142680e-017
  -3.69064426050e-017
  -4.53354295834e-017
  -5.29738909403e-017
  -5.94389096560e-017
  -6.44109905567e-017
  -6.75324272878e-017
  -6.86199008072e-017
  -6.75324273302e-017
  -6.44109905991e-017
  -5.94388963788e-017
  -5.29738909403e-017
  -4.53332060796e-017
  -3.69064359452e-017
  -2.80006142256e-017
  -1.87729035009e-017
  -9.41815336669e-018
  -7.34701933933e-033
  +9.41815676011e-018
  +1.87729035645e-017
  +2.80010708929e-017
  +3.69064425203e-017
  +4.53354295834e-017
  +5.29738909403e-017
  +5.94389096560e-017
  +6.44109905567e-017
  +6.75324406074e-017
  +6.86199008072e-017
  +6.75324273302e-017
  +6.44109905144e-017
  +5.94388963788e-017
  +5.29739041329e-017
  +4.53332060372e-017
  +3.69064425203e-017
  +2.80006208219e-017
  +1.87729034586e-017
  +9.41815332963e-018
  +1.46940387257e-032
  -9.41815651130e-018
  -1.87729035962e-017
  -2.80006209490e-017
  -3.69064426473e-017
  -4.53354294564e-017
  -5.29739042599e-017
  -5.94424697990e-017
  -6.44110037492e-017
  -6.75324406074e-017
  -6.86199008072e-017
  -6.75324406074e-017
  -6.44109905144e-017
  -5.94388964635e-017
  -5.29739040905e-017
  -4.53354293293e-017
  -3.69064425414e-017
  -2.80006144162e-017
  -1.87729034056e-017
  -9.41815634189e-018
  -2.20410581167e-032
  +9.41815325022e-018
  +1.87729036280e-017
  +2.80006141198e-017
  +3.69064427108e-017
  +4.53354294564e-017
  +5.29739043023e-017
  +5.94424829069e-017
  +6.44110038340e-017
  +6.75324274148e-017
  +6.86199008072e-017
  +6.75324406074e-017
  +6.44110037492e-017
  +5.94424698414e-017
  +5.29739041329e-017
  +4.53332057831e-017
  +3.69064424991e-017
  +2.80006143739e-017
  +1.87729033845e-017
  +9.41815352550e-018
  +2.93880774514e-032
  -9.41815381667e-018
  -1.87729031515e-017
  -2.80010707446e-017
  -3.69064427320e-017
  -4.53354426489e-017
  -5.29739043446e-017
  -5.94424699261e-017
  -6.44110038340e-017
  -6.75324274148e-017
  -6.86199008072e-017
  -6.75324406074e-017
  -6.44110037492e-017
  -5.94424698414e-017
  -5.29738908133e-017
  -4.53332190180e-017
  -3.69064429226e-017
  -2.80006143527e-017
  -1.87729033421e-017
  -9.41815348845e-018
  -3.67351026258e-032
  +9.41815716775e-018
  +1.87729031939e-017
  +2.80006146915e-017
  +3.69064427532e-017
  +4.53354294987e-017
  +5.29738907286e-017
  +5.94424699684e-017
  +6.44110038340e-017
  +6.75324272878e-017
  +6.86199008072e-017
  +6.75324272878e-017
  +6.44110037492e-017
  +5.94389096560e-017
  +5.29739044293e-017
  +4.53354292022e-017
  +3.69064424356e-017
  +2.80006143104e-017
  +1.87729027915e-017
  +9.41815728422e-018
  +4.40821161958e-032
  -9.41815665953e-018
  -1.87728966188e-017
  -2.80006147127e-017
  -3.69064427744e-017
  -4.53354294987e-017
  -5.29739040058e-017
  -5.94424699684e-017
  -6.44109906838e-017
  -6.75324272878e-017
  -6.86199008072e-017
  -6.75324272878e-017
  -6.44110037069e-017
  -5.94389096560e-017
  -5.29739043446e-017
  -4.53354292022e-017
  -3.69064423720e-017
  -2.80006142892e-017
  -1.87729027598e-017
  -9.41815725245e-018
  -5.14291413703e-032
  +9.41815339845e-018
  +1.87729032574e-017
  +2.80006213513e-017
  +3.69064427744e-017
  +4.53354294987e-017
  +5.29739040482e-017
  +5.94389098678e-017
  +6.44109906838e-017
  +6.75324272878e-017
  +6.86199008072e-017
  +6.75547812284e-017
  +6.44110037069e-017
  +5.94388963788e-017
  +5.29739043870e-017
  +4.53354292022e-017
  +3.69064423720e-017
  +2.80006132516e-017
  +1.87729037339e-017
  +9.41815390138e-018
  +5.87761547899e-032
  -9.41815343021e-018
  -1.87729043056e-017
  -2.80006138021e-017
  -3.69064419697e-017
  -4.53354295834e-017
  -5.29739040058e-017
  -5.94389099101e-017
  -6.44109906838e-017
  -6.75324271607e-017
  -6.86199008072e-017
  -6.75547812284e-017
  -6.44110037069e-017
  -5.94388958705e-017
  -5.29739036670e-017
  -4.53332064607e-017
  -3.69064357122e-017
  -2.80006208219e-017
  -1.87729026751e-017
  -9.41815611425e-018
  +1.47021689712e-031
  +9.41815678658e-018
  +1.87729033209e-017
  +2.80006147974e-017
  +3.69064362628e-017
  +4.53354304304e-017
  +5.29738907709e-017
  +5.94424827798e-017
  +6.44109906838e-017
  +6.75324406074e-017
  +6.86199008072e-017
  +6.75324272031e-017
  +6.44109908108e-017
  +5.94388963364e-017
  +5.29739042599e-017
  +4.53332056560e-017
  +3.69064422873e-017
  +2.80006132092e-017
  +1.87729036703e-017
  +9.41815713599e-018
  +7.34702054021e-032
</dep>
<dep V2.It time>
  +0.00000000000e+000
  -9.38606320561e-005
  -1.85410103628e-004
  -2.72394162716e-004
  -3.52670973008e-004
  -4.24263853021e-004
  -4.85409948556e-004
  -5.34603640004e-004
  -5.70633615656e-004
  -5.92612698161e-004
  -5.99999689725e-004
  -5.92612698161e-004
  -5.70633615656e-004
  -5.34603640004e-004
  -4.85409948556e-004
  -4.24263853021e-004
  -3.52670973008e-004
  -2.72394162716e-004
  -1.85410103628e-004
  -9.38606320561e-005
  -7.34763444912e-020
  +9.38606320561e-005
  +1.85410103628e-004
  +2.72394162716e-004
  +3.52670973008e-004
  +4.24263853021e-004
  +4.85409948556e-004
  +5.34603640004e-004
  +5.70633615656e-004
  +5.92612698161e-004
  +5.99999689725e-004
  +5.92612698161e-004
  +5.70633615656e-004
  +5.34603640004e-004
  +4.85409948556e-004
  +4.24263853021e-004
  +3.52670973008e-004
  +2.72394162716e-004
  +1.85410103628e-004
  +9.38606320561e-005
  +1.46952688982e-019
  -9.38606320561e-005
  -1.85410103628e-004
  -2.72394162716e-004
  -3.52670973008e-004
  -4.24263853021e-004
  -4.85409948556e-004
  -5.34603640004e-004
  -5.70633615656e-004
  -5.92612698161e-004
  -5.99999689725e-004
  -5.92612698161e-004
  -5.70633615656e-004
  -5.34603640004e-004
  -4.85409948556e-004
  -4.24263853021e-004
  -3.52670973008e-004
  -2.72394162716e-004
  -1.85410103628e-004
  -9.38606320561e-005
  -2.20429033474e-019
  +9.38606320561e-005
  +1.85410103628e-004
  +2.72394162716e-004
  +3.52670973008e-004
  +4.24263853021e-004
  +4.85409948556e-004
  +5.34603640004e-004
  +5.70633615656e-004
  +5.92612698161e-004
  +5.99999689725e-004
  +5.92612698161e-004
  +5.70633615656e-004
  +5.34603640004e-004
  +4.85409948556e-004
  +4.24263853021e-004
  +3.52670973008e-004
  +2.72394162716e-004
  +1.85410103628e-004
  +9.38606320561e-005
  +2.93905377965e-019
  -9.38606320561e-005
  -1.85410103628e-004
  -2.72394162716e-004
  -3.52670973008e-004
  -4.24263853021e-004
  -4.85409948556e-004
  -5.34603640004e-004
  -5.70633615656e-004
  -5.92612698161e-004
  -5.99999689725e-004
  -5.92612698161e-004
  -5.70633615656e-004
  -5.34603640004e-004
  -4.85409948556e-004
  -4.24263853021e-004
  -3.52670973008e-004
  -2.72394162716e-004
  -1.85410103628e-004
  -9.38606320561e-005
  -3.67381722456e-019
  +9.38606320561e-005
  +1.85410103628e-004
  +2.72394162716e-004
  +3.52670973008e-004
  +4.24263853021e-004
  +4.85409948556e-004
  +5.34603640004e-004
  +5.70633615656e-004
  +5.92612698161e-004
  +5.99999689725e-004
  +5.92612698161e-004
  +5.70633615656e-004
  +5.34603640004e-004
  +4.85409948556e-004
  +4.24263853021e-004
  +3.52670973008e-004
  +2.72394162716e-004
  +1.85410103628e-004
  +9.38606320561e-005
  +4.40858066947e-019
  -9.38606320561e-005
  -1.85410103628e-004
  -2.72394162716e-004
  -3.52670973008e-004
  -4.24263853021e-004
  -4.85409948556e-004
  -5.34603640004e-004
  -5.70633615656e-004
  -5.92612698161e-004
  -5.99999689725e-004
  -5.92612698161e-004
  -5.70633615656e-004
  -5.34603640004e-004
  -4.85409948556e-004
  -4.24263853021e-004
  -3.52670973008e-004
  -2.72394162716e-004
  -1.85410103628e-004
  -9.38606320561e-005
  -5.14334411439e-019
  +9.38606320561e-005
  +1.85410103628e-004
  +2.72394162716e-004
  +3.52670973008e-004
  +4.24263853021e-004
  +4.85409948556e-004
  +5.34603640004e-004
  +5.70633615656e-004
  +5.92612698161e-004
  +5.99999689725e-004
  +5.92612698161e-004
  +5.70633615656e-004
  +5.34603640004e-004
  +4.85409948556e-004
  +4.24263853021e-004
  +3.52670973008e-004
  +2.72394162716e-004
  +1.85410103628e-004
  +9.38606320561e-005
  +5.87810755930e-019
  -9.38606320561e-005
  -1.85410103628e-004
  -2.72394162716e-004
  -3.52670973008e-004
  -4.24263853021e-004
  -4.85409948556e-004
  -5.34603640004e-004
  -5.70633615656e-004
  -5.92612698161e-004
  -5.99999689725e-004
  -5.92612698161e-004
  -5.70633615656e-004
  -5.34603640004e-004
  -4.85409948556e-004
  -4.24263853021e-004
  -3.52670973008e-004
  -2.72394162716e-004
  -1.85410103628e-004
  -9.38606320561e-005
  +1.47034004105e-018
  +9.38606320561e-005
  +1.85410103628e-004
  +2.72394162716e-004
  +3.52670973008e-004
  +4.24263853021e-004
  +4.85409948556e-004
  +5.34603640004e-004
  +5.70633615656e-004
  +5.92612698161e-004
  +5.99999689725e-004
  +5.92612698161e-004
  +5.70633615656e-004
  +5.34603640004e-004
  +4.85409948556e-004
  +4.24263853021e-004
  +3.52670973008e-004
  +2.72394162716e-004
  +1.85410103628e-004
  +9.38606320561e-005
  +7.34763444912e-019
</dep>
<dep _net2.Vt time>
  +0.00000000000e+000
  +4.69680555254e-007
  +9.29972310978e-007
  +1.37127925465e-006
  +1.78367157348e-006
  +2.15691250224e-006
  +2.48069216166e-006
  +2.74508676806e-006
  +2.94121001446e-006
  +3.06196385950e-006
  +3.10274699912e-006
  +3.06196385950e-006
  +2.94121001446e-006
  +2.74508676806e-006
  +2.48069216166e-006
  +2.15691250224e-006
  +1.78367157348e-006
  +1.37127925465e-006
  +9.29972310978e-007
  +4.69680555254e-007
  +3.67381097908e-022
  -4.69680555254e-007
  -9.29972310978e-007
  -1.37127925465e-006
  -1.78367157348e-006
  -2.15691250224e-006
  -2.48069216166e-006
  -2.74508676806e-006
  -2.94121001446e-006
  -3.06196385950e-006
  -3.10274699912e-006
  -3.06196385950e-006
  -2.94121001446e-006
  -2.74508676806e-006
  -2.48069216166e-006
  -2.15691250224e-006
  -1.78367157348e-006
  -1.37127925465e-006
  -9.29972310978e-007
  -4.69680555254e-007
  -7.34762195817e-022
  +4.69680555254e-007
  +9.29972310978e-007
  +1.37127925465e-006
  +1.78367157348e-006
  +2.15691250224e-006
  +2.48069216166e-006
  +2.74508676806e-006
  +2.94121001446e-006
  +3.06196385950e-006
  +3.10274699912e-006
  +3.06196385950e-006
  +2.94121001446e-006
  +2.74508676806e-006
  +2.48069216166e-006
  +2.15691250224e-006
  +1.78367157348e-006
  +1.37127925465e-006
  +9.29972310978e-007
  +4.69680555254e-007
  +1.10214329372e-021
  -4.69680555254e-007
  -9.29972310978e-007
  -1.37127925465e-006
  -1.78367157348e-006
  -2.15691250224e-006
  -2.48069216166e-006
  -2.74508676806e-006
  -2.94121001446e-006
  -3.06196385950e-006
  -3.10274699912e-006
  -3.06196385950e-006
  -2.94121001446e-006
  -2.74508676806e-006
  -2.48069216166e-006
  -2.15691250224e-006
  -1.78367157348e-006
  -1.37127925465e-006
  -9.29972310978e-007
  -4.69680555254e-007
  -1.46952439163e-021
  +4.69680555254e-007
  +9.29972310978e-007
  +1.37127925465e-006
  +1.78367157348e-006
  +2.15691250224e-006
  +2.48069216166e-006
  +2.74508676806e-006
  +2.94121001446e-006
  +3.06196385950e-006
  +3.10274699912e-006
  +3.06196385950e-006
  +2.94121001446e-006
  +2.74508676806e-006
  +2.48069216166e-006
  +2.15691250224e-006
  +1.78367157348e-006
  +1.37127925465e-006
  +9.29972310978e-007
  +4.69680555254e-007
  +1.83690548954e-021
  -4.69680555254e-007
  -9.29972310978e-007
  -1.37127925465e-006
  -1.78367157348e-006
  -2.15691250224e-006
  -2.48069216166e-006
  -2.74508676806e-006
  -2.94121001446e-006
  -3.06196385950e-006
  -3.10274699912e-006
  -3.06196385950e-006
  -2.94121001446e-006
  -2.74508676806e-006
  -2.48069216166e-006
  -2.15691250224e-006
  -1.78367157348e-006
  -1.37127925465e-006
  -9.29972310978e-007
  -4.69680555254e-007
  -2.20428658745e-021
  +4.69680555254e-007
  +9.29972310978e-007
  +1.37127925465e-006
  +1.78367157348e-006
  +2.15691250224e-006
  +2.48069216166e-006
  +2.74508676806e-006
  +2.94121001446e-006
  +3.06196385950e-006
  +3.10274699912e-006
  +3.06196385950e-006
  +2.94121001446e-006
  +2.74508676806e-006
  +2.48069216166e-006
  +2.15691250224e-006
  +1.78367157348e-006
  +1.37127925465e-006
  +9.29972310978e-007
  +4.69680555254e-007
  +2.57166768536e-021
  -4.69680555254e-007
  -9.29972310978e-007
  -1.37127925465e-006
  -1.78367157348e-006
  -2.15691250224e-006
  -2.48069216166e-006
  -2.74508676806e-006
  -2.94121001446e-006
  -3.06196385950e-006
  -3.10274699912e-006
  -3.06196385950e-006
  -2.94121001446e-006
  -2.74508676806e-006
  -2.48069216166e-006
  -2.15691250224e-006
  -1.78367157348e-006
  -1.37127925465e-006
  -9.29972310978e-007
  -4.69680555254e-007
  -2.93904878327e-021
  +4.69680555254e-007
  +9.29972310978e-007
  +1.37127925465e-006
  +1.78367157348e-006
  +2.15691250224e-006
  +2.48069216166e-006
  +2.74508676806e-006
  +2.94121001446e-006
  +3.06196385950e-006
  +3.10274699912e-006
  +3.06196385950e-006
  +2.94121001446e-006
  +2.74508676806e-006
  +2.48069216166e-006
  +2.15691250224e-006
  +1.78367157348e-006
  +1.37127925465e-006
  +9.29972310978e-007
  +4.69680555254e-007
  -7.35168770737e-021
  -4.69680555254e-007
  -9.29972310978e-007
  -1.37127925465e-006
  -1.78367157348e-006
  -2.15691250224e-006
  -2.48069216166e-006
  -2.74508676806e-006
  -2.94121001446e-006
  -3.06196385950e-006
  -3.10274699912e-006
  -3.06196385950e-006
  -2.94121001446e-006
  -2.74508676806e-006
  -2.48069216166e-006
  -2.15691250224e-006
  -1.78367157348e-006
  -1.37127925465e-006
  -9.29972310978e-007
  -4.69680555254e-007
  -3.67381097908e-021
</dep>
<dep Vadd.Vt time>
  +0.00000000000e+000
  -4.69302361823e-001
  -9.27048937186e-001
  -1.36196848240e+000
  -1.76335183280e+000
  -2.12131559835e+000
  -2.42704552560e+000
  -2.67301353337e+000
  -2.85316307822e+000
  -2.96305828546e+000
  -2.99999317396e+000
  -2.96305828546e+000
  -2.85316307822e+000
  -2.67301353337e+000
  -2.42704552560e+000
  -2.12131559835e+000
  -1.76335183280e+000
  -1.36196848240e+000
  -9.27048937186e-001
  -4.69302361823e-001
  -3.67381097908e-016
  +4.69302361823e-001
  +9.27048937186e-001
  +1.36196848240e+000
  +1.76335183280e+000
  +2.12131559835e+000
  +2.42704552560e+000
  +2.67301353337e+000
  +2.85316307822e+000
  +2.96305828546e+000
  +2.99999317396e+000
  +2.96305828546e+000
  +2.85316307822e+000
  +2.67301353337e+000
  +2.42704552560e+000
  +2.12131559835e+000
  +1.76335183280e+000
  +1.36196848240e+000
  +9.27048937186e-001
  +4.69302361823e-001
  +7.34762195817e-016
  -4.69302361823e-001
  -9.27048937186e-001
  -1.36196848240e+000
  -1.76335183280e+000
  -2.12131559835e+000
  -2.42704552560e+000
  -2.67301353337e+000
  -2.85316307822e+000
  -2.96305828546e+000
  -2.99999317396e+000
  -2.96305828546e+000
  -2.85316307822e+000
  -2.67301353337e+000
  -2.42704552560e+000
  -2.12131559835e+000
  -1.76335183280e+000
  -1.36196848240e+000
  -9.27048937186e-001
  -4.69302361823e-001
  -1.10214329372e-015
  +4.69302361823e-001
  +9.27048937186e-001
  +1.36196848240e+000
  +1.76335183280e+000
  +2.12131559835e+000
  +2.42704552560e+000
  +2.67301353337e+000
  +2.85316307822e+000
  +2.96305828546e+000
  +2.99999317396e+000
  +2.96305828546e+000
  +2.85316307822e+000
  +2.67301353337e+000
  +2.42704552560e+000
  +2.12131559835e+000
  +1.76335183280e+000
  +1.36196848240e+000
  +9.27048937186e-001
  +4.69302361823e-001
  +1.46952439163e-015
  -4.69302361823e-001
  -9.27048937186e-001
  -1.36196848240e+000
  -1.76335183280e+000
  -2.12131559835e+000
  -2.42704552560e+000
  -2.67301353337e+000
  -2.85316307822e+000
  -2.96305828546e+000
  -2.99999317396e+000
  -2.96305828546e+000
  -2.85316307822e+000
  -2.67301353337e+000
  -2.42704552560e+000
  -2.12131559835e+000
  -1.76335183280e+000
  -1.36196848240e+000
