<Qucs Dataset 0.0.18>
<indep time 201>
  +0.00000000000e+000
  +2.50000000000e-005
  +5.00000000000e-005
  +7.50000000000e-005
  +1.00000000000e-004
  +1.25000000000e-004
  +1.50000000000e-004
  +1.75000000000e-004
  +2.00000000000e-004
  +2.25000000000e-004
  +2.50000000000e-004
  +2.75000000000e-004
  +3.00000000000e-004
  +3.25000000000e-004
  +3.50000000000e-004
  +3.75000000000e-004
  +4.00000000000e-004
  +4.25000000000e-004
  +4.50000000000e-004
  +4.75000000000e-004
  +5.00000000000e-004
  +5.25000000000e-004
  +5.50000000000e-004
  +5.75000000000e-004
  +6.00000000000e-004
  +6.25000000000e-004
  +6.50000000000e-004
  +6.75000000000e-004
  +7.00000000000e-004
  +7.25000000000e-004
  +7.50000000000e-004
  +7.75000000000e-004
  +8.00000000000e-004
  +8.25000000000e-004
  +8.50000000000e-004
  +8.75000000000e-004
  +9.00000000000e-004
  +9.25000000000e-004
  +9.50000000000e-004
  +9.75000000000e-004
  +1.00000000000e-003
  +1.02500000000e-003
  +1.05000000000e-003
  +1.07500000000e-003
  +1.10000000000e-003
  +1.12500000000e-003
  +1.15000000000e-003
  +1.17500000000e-003
  +1.20000000000e-003
  +1.22500000000e-003
  +1.25000000000e-003
  +1.27500000000e-003
  +1.30000000000e-003
  +1.32500000000e-003
  +1.35000000000e-003
  +1.37500000000e-003
  +1.40000000000e-003
  +1.42500000000e-003
  +1.45000000000e-003
  +1.47500000000e-003
  +1.50000000000e-003
  +1.52500000000e-003
  +1.55000000000e-003
  +1.57500000000e-003
  +1.60000000000e-003
  +1.62500000000e-003
  +1.65000000000e-003
  +1.67500000000e-003
  +1.70000000000e-003
  +1.72500000000e-003
  +1.75000000000e-003
  +1.77500000000e-003
  +1.80000000000e-003
  +1.82500000000e-003
  +1.85000000000e-003
  +1.87500000000e-003
  +1.90000000000e-003
  +1.92500000000e-003
  +1.95000000000e-003
  +1.97500000000e-003
  +2.00000000000e-003
  +2.02500000000e-003
  +2.05000000000e-003
  +2.07500000000e-003
  +2.10000000000e-003
  +2.12500000000e-003
  +2.15000000000e-003
  +2.17500000000e-003
  +2.20000000000e-003
  +2.22500000000e-003
  +2.25000000000e-003
  +2.27500000000e-003
  +2.30000000000e-003
  +2.32500000000e-003
  +2.35000000000e-003
  +2.37500000000e-003
  +2.40000000000e-003
  +2.42500000000e-003
  +2.45000000000e-003
  +2.47500000000e-003
  +2.50000000000e-003
  +2.52500000000e-003
  +2.55000000000e-003
  +2.57500000000e-003
  +2.60000000000e-003
  +2.62500000000e-003
  +2.65000000000e-003
  +2.67500000000e-003
  +2.70000000000e-003
  +2.72500000000e-003
  +2.75000000000e-003
  +2.77500000000e-003
  +2.80000000000e-003
  +2.82500000000e-003
  +2.85000000000e-003
  +2.87500000000e-003
  +2.90000000000e-003
  +2.92500000000e-003
  +2.95000000000e-003
  +2.97500000000e-003
  +3.00000000000e-003
  +3.02500000000e-003
  +3.05000000000e-003
  +3.07500000000e-003
  +3.10000000000e-003
  +3.12500000000e-003
  +3.15000000000e-003
  +3.17500000000e-003
  +3.20000000000e-003
  +3.22500000000e-003
  +3.25000000000e-003
  +3.27500000000e-003
  +3.30000000000e-003
  +3.32500000000e-003
  +3.35000000000e-003
  +3.37500000000e-003
  +3.40000000000e-003
  +3.42500000000e-003
  +3.45000000000e-003
  +3.47500000000e-003
  +3.50000000000e-003
  +3.52500000000e-003
  +3.55000000000e-003
  +3.57500000000e-003
  +3.60000000000e-003
  +3.62500000000e-003
  +3.65000000000e-003
  +3.67500000000e-003
  +3.70000000000e-003
  +3.72500000000e-003
  +3.75000000000e-003
  +3.77500000000e-003
  +3.80000000000e-003
  +3.82500000000e-003
  +3.85000000000e-003
  +3.87500000000e-003
  +3.90000000000e-003
  +3.92500000000e-003
  +3.95000000000e-003
  +3.97500000000e-003
  +4.00000000000e-003
  +4.02500000000e-003
  +4.05000000000e-003
  +4.07500000000e-003
  +4.10000000000e-003
  +4.12500000000e-003
  +4.15000000000e-003
  +4.17500000000e-003
  +4.20000000000e-003
  +4.22500000000e-003
  +4.25000000000e-003
  +4.27500000000e-003
  +4.30000000000e-003
  +4.32500000000e-003
  +4.35000000000e-003
  +4.37500000000e-003
  +4.40000000000e-003
  +4.42500000000e-003
  +4.45000000000e-003
  +4.47500000000e-003
  +4.50000000000e-003
  +4.52500000000e-003
  +4.55000000000e-003
  +4.57500000000e-003
  +4.60000000000e-003
  +4.62500000000e-003
  +4.65000000000e-003
  +4.67500000000e-003
  +4.70000000000e-003
  +4.72500000000e-003
  +4.75000000000e-003
  +4.77500000000e-003
  +4.80000000000e-003
  +4.82500000000e-003
  +4.85000000000e-003
  +4.87500000000e-003
  +4.90000000000e-003
  +4.92500000000e-003
  +4.95000000000e-003
  +4.97500000000e-003
  +5.00000000000e-003
</indep>
<dep V1.It time>
  +0.00000000000e+000
  +7.89180478161e-017
  +1.60021275798e-016
  +2.44951724246e-016
  +3.34211050376e-016
  +4.26481777157e-016
  +5.18109261169e-016
  +6.02882548976e-016
  +6.72615866753e-016
  +7.18876423106e-016
  +7.35063381564e-016
  +7.18876423106e-016
  +6.72615879988e-016
  +6.02870787627e-016
  +5.18109261169e-016
  +4.26481763922e-016
  +3.34205504957e-016
  +2.44946172210e-016
  +1.60021279107e-016
  +7.89172369298e-017
  +6.12307557648e-032
  -7.89172370527e-017
  -1.60021279107e-016
  -2.44950223604e-016
  -3.34205504957e-016
  -4.26481777157e-016
  -5.18109247934e-016
  -6.02882548976e-016
  -6.72615866753e-016
  -7.18876396754e-016
  -7.35063381564e-016
  -7.18876423106e-016
  -6.72626977443e-016
  -6.02870787627e-016
  -5.18109261062e-016
  -4.26481763922e-016
  -3.34205504957e-016
  -2.44951720937e-016
  -1.60021272489e-016
  -7.89172401826e-017
  -1.22461511530e-031
  +7.89172432790e-017
  +1.60018499780e-016
  +2.44946168901e-016
  +3.34205498340e-016
  +4.26481770539e-016
  +5.18109261276e-016
  +6.02870787738e-016
  +6.72615853518e-016
  +7.18876396754e-016
  +7.35063381564e-016
  +7.18876409989e-016
  +6.72626977443e-016
  +6.02870787849e-016
  +5.18109260955e-016
  +4.26481770539e-016
  +3.34205504957e-016
  +2.44946172210e-016
  +1.60018499780e-016
  +7.89172429883e-017
  +1.83692271702e-031
  -7.89172367397e-017
  -1.60021279107e-016
  -2.44950223322e-016
  -3.34205498340e-016
  -4.26481770539e-016
  -5.18109261276e-016
  -6.02870774280e-016
  -6.72626957591e-016
  -7.18876423341e-016
  -7.35063381564e-016
  -7.18876409989e-016
  -6.72615866753e-016
  -6.02870787738e-016
  -5.18109260955e-016
  -4.26481770539e-016
  -3.34205498340e-016
  -2.44946175518e-016
  -1.60021279107e-016
  -7.89172371868e-017
  -2.44923023059e-031
  +7.89172409762e-017
  +1.60018499780e-016
  +2.44950216752e-016
  +3.34211050376e-016
  +4.26481763922e-016
  +5.18109261383e-016
  +6.02870788072e-016
  +6.72626957591e-016
  +7.18876423341e-016
  +7.35063381564e-016
  +7.18876409989e-016
  +6.72615866753e-016
  +6.02870787738e-016
  +5.18109247720e-016
  +4.26481763922e-016
  +3.34205498340e-016
  +2.44951720937e-016
  +1.60018499780e-016
  +7.89171624839e-017
  +3.06153777355e-031
  -7.89172377457e-017
  -1.60021279107e-016
  -2.44946175518e-016
  -3.34205498340e-016
  -4.26481763922e-016
  -5.18109247507e-016
  -6.02870788072e-016
  -6.72626957591e-016
  -7.18876423106e-016
  -7.35063381564e-016
  -7.18876422989e-016
  -6.72615866753e-016
  -6.02870774392e-016
  -5.18109261490e-016
  -4.26481770539e-016
  -3.34205498340e-016
  -2.44946172210e-016
  -1.60018509706e-016
  -7.89172379469e-017
  -3.67384543405e-031
  +7.89172402273e-017
  +1.60018496471e-016
  +2.44946172210e-016
  +3.34205498340e-016
  +4.26481763922e-016
  +5.18109260848e-016
  +6.02870788072e-016
  +6.72626957591e-016
  +7.18876423106e-016
  +7.35063381564e-016
  +7.18876422989e-016
  +6.72626964208e-016
  +6.02870774392e-016
  +5.18109248255e-016
  +4.26481770539e-016
  +3.34205504957e-016
  +2.44946172210e-016
  +1.60021285724e-016
  +7.89172378910e-017
  +4.28615297700e-031
  -7.89172402832e-017
  -1.60021279107e-016
  -2.44951717628e-016
  -3.34205498340e-016
  -4.26481763922e-016
  -5.18109260848e-016
  -6.02870774948e-016
  -6.72626957591e-016
  -7.18876423106e-016
  -7.35063381564e-016
  -7.18876423341e-016
  -6.72626964208e-016
  -6.02870787627e-016
  -5.18109248255e-016
  -4.26481763922e-016
  -3.34205504957e-016
  -2.44946172210e-016
  -1.60018503089e-016
  -7.89172411326e-017
  -4.89846046118e-031
  +7.89172370303e-017
  +1.60021275798e-016
  +2.44951724246e-016
  +3.34205504957e-016
  +4.26481777157e-016
  +5.18109260848e-016
  +6.02870774948e-016
  +6.72626957591e-016
  +7.18876409636e-016
  +7.35063381564e-016
  +7.18876423341e-016
  +6.72626964208e-016
  +6.02870786513e-016
  +5.18109260100e-016
  +4.26481770539e-016
  +3.34211056993e-016
  +2.44951720937e-016
  +1.60018506397e-016
  +7.89172392996e-017
  -1.22531111962e-030
  -7.89172370974e-017
  -1.60021279107e-016
  -2.44950224498e-016
  -3.34211056993e-016
  -4.26481770539e-016
  -5.18109247720e-016
  -6.02870773946e-016
  -6.72615866753e-016
  -7.18876396754e-016
  -7.35063381564e-016
  -7.18876409754e-016
  -6.72615873370e-016
  -6.02870787515e-016
  -5.18109261383e-016
  -4.26481763922e-016
  -3.34205504957e-016
  -2.44950221724e-016
  -1.60018503089e-016
  -7.89172377010e-017
  -6.12307554709e-031
</dep>
<dep V2.It time>
  +0.00000000000e+000
  -9.38606006318e-005
  -1.85410040754e-004
  -2.72394068475e-004
  -3.52670847839e-004
  -4.24263698067e-004
  -4.85409766051e-004
  -5.34603433605e-004
  -5.70633390610e-004
  -5.92612461208e-004
  -5.99999448673e-004
  -5.92612461208e-004
  -5.70633390610e-004
  -5.34603433605e-004
  -4.85409766051e-004
  -4.24263698067e-004
  -3.52670847839e-004
  -2.72394068475e-004
  -1.85410040754e-004
  -9.38606006318e-005
  -7.34763199992e-020
  +9.38606006318e-005
  +1.85410040754e-004
  +2.72394068475e-004
  +3.52670847839e-004
  +4.24263698067e-004
  +4.85409766051e-004
  +5.34603433605e-004
  +5.70633390610e-004
  +5.92612461208e-004
  +5.99999448673e-004
  +5.92612461208e-004
  +5.70633390610e-004
  +5.34603433605e-004
  +4.85409766051e-004
  +4.24263698067e-004
  +3.52670847839e-004
  +2.72394068475e-004
  +1.85410040754e-004
  +9.38606006318e-005
  +1.46952639998e-019
  -9.38606006318e-005
  -1.85410040754e-004
  -2.72394068475e-004
  -3.52670847839e-004
  -4.24263698067e-004
  -4.85409766051e-004
  -5.34603433605e-004
  -5.70633390610e-004
  -5.92612461208e-004
  -5.99999448673e-004
  -5.92612461208e-004
  -5.70633390610e-004
  -5.34603433605e-004
  -4.85409766051e-004
  -4.24263698067e-004
  -3.52670847839e-004
  -2.72394068475e-004
  -1.85410040754e-004
  -9.38606006318e-005
  -2.20428959998e-019
  +9.38606006318e-005
  +1.85410040754e-004
  +2.72394068475e-004
  +3.52670847839e-004
  +4.24263698067e-004
  +4.85409766051e-004
  +5.34603433605e-004
  +5.70633390610e-004
  +5.92612461208e-004
  +5.99999448673e-004
  +5.92612461208e-004
  +5.70633390610e-004
  +5.34603433605e-004
  +4.85409766051e-004
  +4.24263698067e-004
  +3.52670847839e-004
  +2.72394068475e-004
  +1.85410040754e-004
  +9.38606006318e-005
  +2.93905279997e-019
  -9.38606006317e-005
  -1.85410040754e-004
  -2.72394068475e-004
  -3.52670847839e-004
  -4.24263698067e-004
  -4.85409766051e-004
  -5.34603433605e-004
  -5.70633390610e-004
  -5.92612461208e-004
  -5.99999448673e-004
  -5.92612461208e-004
  -5.70633390610e-004
  -5.34603433605e-004
  -4.85409766051e-004
  -4.24263698067e-004
  -3.52670847839e-004
  -2.72394068475e-004
  -1.85410040754e-004
  -9.38606006318e-005
  -3.67381599996e-019
  +9.38606006317e-005
  +1.85410040754e-004
  +2.72394068475e-004
  +3.52670847839e-004
  +4.24263698067e-004
  +4.85409766051e-004
  +5.34603433605e-004
  +5.70633390610e-004
  +5.92612461208e-004
  +5.99999448673e-004
  +5.92612461208e-004
  +5.70633390610e-004
  +5.34603433605e-004
  +4.85409766051e-004
  +4.24263698067e-004
  +3.52670847839e-004
  +2.72394068475e-004
  +1.85410040754e-004
  +9.38606006317e-005
  +4.40857919995e-019
  -9.38606006318e-005
  -1.85410040754e-004
  -2.72394068475e-004
  -3.52670847839e-004
  -4.24263698067e-004
  -4.85409766051e-004
  -5.34603433605e-004
  -5.70633390610e-004
  -5.92612461208e-004
  -5.99999448673e-004
  -5.92612461208e-004
  -5.70633390610e-004
  -5.34603433605e-004
  -4.85409766051e-004
  -4.24263698067e-004
  -3.52670847839e-004
  -2.72394068475e-004
  -1.85410040754e-004
  -9.38606006317e-005
  -5.14334239994e-019
  +9.38606006318e-005
  +1.85410040754e-004
  +2.72394068475e-004
  +3.52670847839e-004
  +4.24263698067e-004
  +4.85409766051e-004
  +5.34603433605e-004
  +5.70633390610e-004
  +5.92612461208e-004
  +5.99999448673e-004
  +5.92612461208e-004
  +5.70633390610e-004
  +5.34603433605e-004
  +4.85409766051e-004
  +4.24263698067e-004
  +3.52670847839e-004
  +2.72394068475e-004
  +1.85410040754e-004
  +9.38606006317e-005
  +5.87810559994e-019
  -9.38606006318e-005
  -1.85410040754e-004
  -2.72394068475e-004
  -3.52670847839e-004
  -4.24263698067e-004
  -4.85409766051e-004
  -5.34603433605e-004
  -5.70633390610e-004
  -5.92612461208e-004
  -5.99999448673e-004
  -5.92612461208e-004
  -5.70633390610e-004
  -5.34603433605e-004
  -4.85409766051e-004
  -4.24263698067e-004
  -3.52670847839e-004
  -2.72394068475e-004
  -1.85410040754e-004
  -9.38606006318e-005
  +1.47033955094e-018
  +9.38606006318e-005
  +1.85410040754e-004
  +2.72394068475e-004
  +3.52670847839e-004
  +4.24263698067e-004
  +4.85409766051e-004
  +5.34603433605e-004
  +5.70633390610e-004
  +5.92612461208e-004
  +5.99999448673e-004
  +5.92612461208e-004
  +5.70633390610e-004
  +5.34603433605e-004
  +4.85409766051e-004
  +4.24263698067e-004
  +3.52670847839e-004
  +2.72394068475e-004
  +1.85410040754e-004
  +9.38606006317e-005
  +7.34763199992e-019
</dep>
<dep Vsub.Vt time>
  +0.00000000000e+000
  +7.82169189509e-001
  +1.54507873706e+000
  +2.26994324395e+000
  +2.93891412003e+000
  +3.53551908016e+000
  +4.04506774893e+000
  +4.45501338463e+000
  +4.75526181484e+000
  +4.93841997703e+000
  +4.99997794696e+000
  +4.93841997703e+000
  +4.75526181484e+000
  +4.45501338463e+000
  +4.04506774893e+000
  +3.53551908016e+000
  +2.93891412003e+000
  +2.26994324395e+000
  +1.54507873706e+000
  +7.82169189509e-001
  +6.12300727708e-016
  -7.82169189509e-001
  -1.54507873706e+000
  -2.26994324395e+000
  -2.93891412003e+000
  -3.53551908016e+000
  -4.04506774893e+000
  -4.45501338463e+000
  -4.75526181484e+000
  -4.93841997703e+000
  -4.99997794696e+000
  -4.93841997703e+000
  -4.75526181484e+000
  -4.45501338463e+000
  -4.04506774893e+000
  -3.53551908016e+000
  -2.93891412003e+000
  -2.26994324395e+000
  -1.54507873706e+000
  -7.82169189509e-001
  -1.22460145542e-015
  +7.82169189509e-001
  +1.54507873706e+000
  +2.26994324395e+000
  +2.93891412003e+000
  +3.53551908016e+000
  +4.04506774893e+000
  +4.45501338463e+000
  +4.75526181484e+000
  +4.93841997703e+000
  +4.99997794696e+000
  +4.93841997703e+000
  +4.75526181484e+000
  +4.45501338463e+000
  +4.04506774893e+000
  +3.53551908016e+000
  +2.93891412003e+000
  +2.26994324395e+000
  +1.54507873706e+000
  +7.82169189509e-001
  +1.83690218312e-015
  -7.82169189509e-001
  -1.54507873706e+000
  -2.26994324395e+000
  -2.93891412003e+000
  -3.53551908016e+000
  -4.04506774893e+000
  -4.45501338463e+000
  -4.75526181484e+000
  -4.93841997703e+000
  -4.99997794696e+000
  -4.93841997703e+000
  -4.75526181484e+000
  -4.45501338463e+000
  -4.04506774893e+000
  -3.53551908016e+000
  -2.93891412003e+000
  -2.26994324395e+000
  -1.54507873706e+000
  -7.82169189509e-001
  -2.44920291083e-015
  +7.82169189509e-001
  +1.54507873706e+000
  +2.26994324395e+000
  +2.93891412003e+000
  +3.53551908016e+000
  +4.04506774893e+000
  +4.45501338463e+000
  +4.75526181484e+000
  +4.93841997703e+000
  +4.99997794696e+000
  +4.93841997703e+000
  +4.75526181484e+000
  +4.45501338463e+000
  +4.04506774893e+000
  +3.53551908016e+000
  +2.93891412003e+000
  +2.26994324395e+000
  +1.54507873706e+000
  +7.82169189509e-001
  +3.06150363854e-015
  -7.82169189509e-001
  -1.54507873706e+000
  -2.26994324395e+000
  -2.93891412003e+000
  -3.53551908016e+000
  -4.04506774893e+000
  -4.45501338463e+000
  -4.75526181484e+000
  -4.93841997703e+000
  -4.99997794696e+000
  -4.93841997703e+000
  -4.75526181484e+000
  -4.45501338463e+000
  -4.04506774893e+000
  -3.53551908016e+000
  -2.93891412003e+000
  -2.26994324395e+000
  -1.54507873706e+000
  -7.82169189509e-001
  -3.67380436625e-015
  +7.82169189509e-001
  +1.54507873706e+000
  +2.26994324395e+000
  +2.93891412003e+000
  +3.53551908016e+000
  +4.04506774893e+000
  +4.45501338463e+000
  +4.75526181484e+000
  +4.93841997703e+000
  +4.99997794696e+000
  +4.93841997703e+000
  +4.75526181484e+000
  +4.45501338463e+000
  +4.04506774893e+000
  +3.53551908016e+000
  +2.93891412003e+000
  +2.26994324395e+000
  +1.54507873706e+000
  +7.82169189509e-001
  +4.28610509396e-015
  -7.82169189509e-001
  -1.54507873706e+000
  -2.26994324395e+000
  -2.93891412003e+000
  -3.53551908016e+000
  -4.04506774893e+000
  -4.45501338463e+000
  -4.75526181484e+000
  -4.93841997703e+000
  -4.99997794696e+000
  -4.93841997703e+000
  -4.75526181484e+000
  -4.45501338463e+000
  -4.04506774893e+000
  -3.53551908016e+000
  -2.93891412003e+000
  -2.26994324395e+000
  -1.54507873706e+000
  -7.82169189509e-001
  -4.89840582167e-015
  +7.82169189509e-001
  +1.54507873706e+000
  +2.26994324395e+000
  +2.93891412003e+000
  +3.53551908016e+000
  +4.04506774893e+000
  +4.45501338463e+000
  +4.75526181484e+000
  +4.93841997703e+000
  +4.99997794696e+000
  +4.93841997703e+000
  +4.75526181484e+000
  +4.45501338463e+000
  +4.04506774893e+000
  +3.53551908016e+000
  +2.93891412003e+000
  +2.26994324395e+000
  +1.54507873706e+000
  +7.82169189509e-001
  -1.22527907906e-014
  -7.82169189509e-001
  -1.54507873706e+000
  -2.26994324395e+000
  -2.93891412003e+000
  -3.53551908016e+000
  -4.04506774893e+000
  -4.45501338463e+000
  -4.75526181484e+000
  -4.93841997703e+000
  -4.99997794696e+000
  -4.93841997703e+000
  -4.75526181484e+000
  -4.45501338463e+000
  -4.04506774893e+000
  -3.53551908016e+000
  -2.93891412003e+000
  -2.26994324395e+000
  -1.54507873706e+000
  -7.82169189509e-001
  -6.12300727708e-015
</dep>
<dep _net0.Vt time>
  +0.00000000000e+000
  +3.12868146157e-001
  +6.18032430045e-001
  +9.07978685792e-001
  +1.17556746923e+000
  +1.41420985593e+000
  +1.61802968301e+000
  +1.78200823930e+000
  +1.90210784093e+000
  +1.97537124970e+000
  +1.99999448674e+000
  +1.97537124970e+000
  +1.90210784093e+000
  +1.78200823930e+000
  +1.61802968301e+000
  +1.41420985593e+000
  +1.17556746923e+000
  +9.07978685792e-001
  +6.18032430045e-001
  +3.12868146157e-001
  +2.44920658464e-016
  -3.12868146157e-001
  -6.18032430045e-001
  -9.07978685792e-001
  -1.17556746923e+000
  -1.41420985593e+000
  -1.61802968301e+000
  -1.78200823930e+000
  -1.90210784093e+000
  -1.97537124970e+000
  -1.99999448674e+000
  -1.97537124970e+000
  -1.90210784093e+000
  -1.78200823930e+000
  -1.61802968301e+000
  -1.41420985593e+000
  -1.17556746923e+000
  -9.07978685792e-001
  -6.18032430045e-001
  -3.12868146157e-001
  -4.89841316927e-016
  +3.12868146157e-001
  +6.18032430045e-001
  +9.07978685792e-001
  +1.17556746923e+000
  +1.41420985593e+000
  +1.61802968301e+000
  +1.78200823930e+000
  +1.90210784093e+000
  +1.97537124970e+000
  +1.99999448674e+000
  +1.97537124970e+000
  +1.90210784093e+000
  +1.78200823930e+000
  +1.61802968301e+000
  +1.41420985593e+000
  +1.17556746923e+000
  +9.07978685792e-001
  +6.18032430045e-001
  +3.12868146157e-001
  +7.34761975391e-016
  -3.12868146157e-001
  -6.18032430045e-001
  -9.07978685792e-001
  -1.17556746923e+000
  -1.41420985593e+000
  -1.61802968301e+000
  -1.78200823930e+000
  -1.90210784093e+000
  -1.97537124970e+000
  -1.99999448674e+000
  -1.97537124970e+000
  -1.90210784093e+000
  -1.78200823930e+000
  -1.61802968301e+000
  -1.41420985593e+000
  -1.17556746923e+000
  -9.07978685792e-001
  -6.18032430045e-001
  -3.12868146157e-001
  -9.79682633855e-016
  +3.12868146157e-001
  +6.18032430045e-001
  +9.07978685792e-001
  +1.17556746923e+000
  +1.41420985593e+000
  +1.61802968301e+000
  +1.78200823930e+000
  +1.90210784093e+000
  +1.97537124970e+000
  +1.99999448674e+000
  +1.97537124970e+000
  +1.90210784093e+000
  +1.78200823930e+000
  +1.61802968301e+000
  +1.41420985593e+000
  +1.17556746923e+000
  +9.07978685792e-001
