<Qucs Dataset 0.0.18>
<indep dtime 21>
  +0.00000000000e+000
  +1.00000000000e-009
  +2.00000000000e-009
  +3.00000000000e-009
  +4.00000000000e-009
  +5.00000000000e-009
  +6.00000000000e-009
  +7.00000000000e-009
  +8.00000000000e-009
  +9.00000000000e-009
  +1.00000000000e-008
  +1.10000000000e-008
  +1.20000000000e-008
  +1.30000000000e-008
  +1.40000000000e-008
  +1.50000000000e-008
  +1.60000000000e-008
  +1.70000000000e-008
  +1.80000000000e-008
  +1.90000000000e-008
  +2.00000000000e-008
</indep>
<dep CLK.X dtime>
  0
  1
  0
  1
  0
  1
  0
  1
  0
  1
  0
  1
  0
  1
  0
  1
  0
  1
  0
  1
  0
</dep>
<dep Q0.X dtime>
  0
  1
  1
  0
  0
  1
  1
  0
  0
  1
  1
  0
  0
  1
  1
  0
  0
  1
  1
  0
  0
</dep>
<dep Q1.X dtime>
  0
  0
  0
  1
  1
  1
  1
  1
  1
  0
  0
  0
  0
  0
  0
  1
  1
  1
  1
  1
  1
</dep>
<dep Q2.X dtime>
  0
  1
  1
  1
  1
  1
  1
  0
  0
  0
  0
  0
  0
  1
  1
  1
  1
  1
  1
  0
  0
</dep>
<dep RST.X dtime>
  0
  1
  1
  1
  1
  1
  1
  1
  1
  1
  1
  1
  1
  1
  1
  1
  1
  1
  1
  1
  1
</dep>
<dep SET.X dtime>
  1
  1
  1
  1
  1
  1
  1
  1
  1
  1
  1
  1
  1
  1
  1
  1
  1
  1
  1
  1
  1
</dep>
<dep _net0.X dtime>
  1
  0
  0
  1
  1
  0
  0
  1
  1
  0
  0
  1
  1
  0
  0
  1
  1
  0
  0
  1
  1
</dep>
<dep _net1.X dtime>
  1
  1
  1
  1
  1
  0
  0
  0
  0
  0
  0
  1
  1
  1
  1
  1
  1
  0
  0
  0
  0
</dep>
<dep _net2.X dtime>
  1
  0
  0
  0
  0
  0
  0
  1
  1
  1
  1
  1
  1
  0
  0
  0
  0
  0
  0
  1
  1
</dep>
<dep _net3.X dtime>
  0
  1
  1
  1
  1
  1
  1
  0
  0
  0
  0
  0
  0
  1
  1
  1
  1
  1
  1
  0
  0
</dep>
<dep _net4.X dtime>
  1
  1
  1
  0
  0
  0
  0
  0
  0
  1
  1
  1
  1
  1
  1
  0
  0
  0
  0
  0
  0
</dep>
<dep _net5.X dtime>
  0
  1
  1
  0
  0
  1
  1
  0
  0
  0
  0
  0
  0
  1
  1
  0
  0
  1
  1
  0
  0
</dep>
<dep _net6.X dtime>
  0
  0
  0
  1
  1
  1
  1
  0
  0
  0
  0
  0
  0
  0
  0
  1
  1
  1
  1
  0
  0
</dep>
<dep _net7.X dtime>
  0
  0
  0
  1
  1
  0
  0
  0
  0
  0
  0
  0
  0
  0
  0
  1
  1
  0
  0
  0
  0
</dep>
<dep _net8.X dtime>
  0
  1
  1
  0
  0
  0
  0
  0
  0
  0
  0
  0
  0
  1
  1
  0
  0
  0
  0
  0
  0
</dep>
<dep _net9.X dtime>
  1
  0
  0
  0
  0
  0
  0
  0
  0
  0
  0
  1
  1
  0
  0
  0
  0
  0
  0
  0
  0
</dep>
<dep QB_regY0net_net0.X dtime>
  1
  0
  0
  1
  1
  0
  0
  1
  1
  0
  0
  1
  1
  0
  0
  1
  1
  0
  0
  1
  1
</dep>
<dep QB_regY1net_net4.X dtime>
  1
  1
  1
  0
  0
  0
  0
  0
  0
  1
  1
  1
  1
  1
  1
  0
  0
  0
  0
  0
  0
</dep>
<dep QB_regY2net_net2.X dtime>
  1
  0
  0
  0
  0
  0
  0
  1
  1
  1
  1
  1
  1
  0
  0
  0
  0
  0
  0
  1
  1
</dep>
<dep Q_regY0netQ0.X dtime>
  0
  1
  1
  0
  0
  1
  1
  0
  0
  1
  1
  0
  0
  1
  1
  0
  0
  1
  1
  0
  0
</dep>
<dep Q_regY1netQ1.X dtime>
  0
  0
  0
  1
  1
  1
  1
  1
  1
  0
  0
  0
  0
  0
  0
  1
  1
  1
  1
  1
  1
</dep>
<dep Q_regY2netQ2.X dtime>
  0
  1
  1
  1
  1
  1
  1
  0
  0
  0
  0
  0
  0
  1
  1
  1
  1
  1
  1
  0
  0
</dep>
<dep Q_stateY0.X dtime>
  0
  1
  1
  0
  0
  1
  1
  0
  0
  1
  1
  0
  0
  1
  1
  0
  0
  1
  1
  0
  0
</dep>
<dep Q_stateY1.X dtime>
  0
  0
  0
  1
  1
  1
  1
  1
  1
  0
  0
  0
  0
  0
  0
  1
  1
  1
  1
  1
  1
</dep>
<dep Q_stateY2.X dtime>
  0
  1
  1
  1
  1
  1
  1
  0
  0
  0
  0
  0
  0
  1
  1
  1
  1
  1
  1
  0
  0
</dep>
<dep _regSETnetSET.X dtime>
  1
  1
  1
  1
  1
  1
  1
  1
  1
  1
  1
  1
  1
  1
  1
  1
  1
  1
  1
  1
  1
</dep>
<dep _srcCLKnetCLK.X dtime>
  0
  1
  0
  1
  0
  1
  0
  1
  0
  1
  0
  1
  0
  1
  0
  1
  0
  1
  0
  1
  0
</dep>
<dep _srcRSTnetRST.X dtime>
  0
  1
  1
  1
  1
  1
  1
  1
  1
  1
  1
  1
  1
  1
  1
  1
  1
  1
  1
  1
  1
</dep>
