<Qucs Dataset 0.0.18>
<indep frequency 300>
  +1.00000000000e+006
  +2.00000000000e+006
  +3.00000000000e+006
  +4.00000000000e+006
  +5.00000000000e+006
  +6.00000000000e+006
  +7.00000000000e+006
  +8.00000000000e+006
  +9.00000000000e+006
  +1.00000000000e+007
  +1.10000000000e+007
  +1.20000000000e+007
  +1.30000000000e+007
  +1.40000000000e+007
  +1.50000000000e+007
  +1.60000000000e+007
  +1.70000000000e+007
  +1.80000000000e+007
  +1.90000000000e+007
  +2.00000000000e+007
  +2.10000000000e+007
  +2.20000000000e+007
  +2.30000000000e+007
  +2.40000000000e+007
  +2.50000000000e+007
  +2.60000000000e+007
  +2.70000000000e+007
  +2.80000000000e+007
  +2.90000000000e+007
  +3.00000000000e+007
  +3.10000000000e+007
  +3.20000000000e+007
  +3.30000000000e+007
  +3.40000000000e+007
  +3.50000000000e+007
  +3.60000000000e+007
  +3.70000000000e+007
  +3.80000000000e+007
  +3.90000000000e+007
  +4.00000000000e+007
  +4.10000000000e+007
  +4.20000000000e+007
  +4.30000000000e+007
  +4.40000000000e+007
  +4.50000000000e+007
  +4.60000000000e+007
  +4.70000000000e+007
  +4.80000000000e+007
  +4.90000000000e+007
  +5.00000000000e+007
  +5.10000000000e+007
  +5.20000000000e+007
  +5.30000000000e+007
  +5.40000000000e+007
  +5.50000000000e+007
  +5.60000000000e+007
  +5.70000000000e+007
  +5.80000000000e+007
  +5.90000000000e+007
  +6.00000000000e+007
  +6.10000000000e+007
  +6.20000000000e+007
  +6.30000000000e+007
  +6.40000000000e+007
  +6.50000000000e+007
  +6.60000000000e+007
  +6.70000000000e+007
  +6.80000000000e+007
  +6.90000000000e+007
  +7.00000000000e+007
  +7.10000000000e+007
  +7.20000000000e+007
  +7.30000000000e+007
  +7.40000000000e+007
  +7.50000000000e+007
  +7.60000000000e+007
  +7.70000000000e+007
  +7.80000000000e+007
  +7.90000000000e+007
  +8.00000000000e+007
  +8.10000000000e+007
  +8.20000000000e+007
  +8.30000000000e+007
  +8.40000000000e+007
  +8.50000000000e+007
  +8.60000000000e+007
  +8.70000000000e+007
  +8.80000000000e+007
  +8.90000000000e+007
  +9.00000000000e+007
  +9.10000000000e+007
  +9.20000000000e+007
  +9.30000000000e+007
  +9.40000000000e+007
  +9.50000000000e+007
  +9.60000000000e+007
  +9.70000000000e+007
  +9.80000000000e+007
  +9.90000000000e+007
  +1.00000000000e+008
  +1.01000000000e+008
  +1.02000000000e+008
  +1.03000000000e+008
  +1.04000000000e+008
  +1.05000000000e+008
  +1.06000000000e+008
  +1.07000000000e+008
  +1.08000000000e+008
  +1.09000000000e+008
  +1.10000000000e+008
  +1.11000000000e+008
  +1.12000000000e+008
  +1.13000000000e+008
  +1.14000000000e+008
  +1.15000000000e+008
  +1.16000000000e+008
  +1.17000000000e+008
  +1.18000000000e+008
  +1.19000000000e+008
  +1.20000000000e+008
  +1.21000000000e+008
  +1.22000000000e+008
  +1.23000000000e+008
  +1.24000000000e+008
  +1.25000000000e+008
  +1.26000000000e+008
  +1.27000000000e+008
  +1.28000000000e+008
  +1.29000000000e+008
  +1.30000000000e+008
  +1.31000000000e+008
  +1.32000000000e+008
  +1.33000000000e+008
  +1.34000000000e+008
  +1.35000000000e+008
  +1.36000000000e+008
  +1.37000000000e+008
  +1.38000000000e+008
  +1.39000000000e+008
  +1.40000000000e+008
  +1.41000000000e+008
  +1.42000000000e+008
  +1.43000000000e+008
  +1.44000000000e+008
  +1.45000000000e+008
  +1.46000000000e+008
  +1.47000000000e+008
  +1.48000000000e+008
  +1.49000000000e+008
  +1.50000000000e+008
  +1.51000000000e+008
  +1.52000000000e+008
  +1.53000000000e+008
  +1.54000000000e+008
  +1.55000000000e+008
  +1.56000000000e+008
  +1.57000000000e+008
  +1.58000000000e+008
  +1.59000000000e+008
  +1.60000000000e+008
  +1.61000000000e+008
  +1.62000000000e+008
  +1.63000000000e+008
  +1.64000000000e+008
  +1.65000000000e+008
  +1.66000000000e+008
  +1.67000000000e+008
  +1.68000000000e+008
  +1.69000000000e+008
  +1.70000000000e+008
  +1.71000000000e+008
  +1.72000000000e+008
  +1.73000000000e+008
  +1.74000000000e+008
  +1.75000000000e+008
  +1.76000000000e+008
  +1.77000000000e+008
  +1.78000000000e+008
  +1.79000000000e+008
  +1.80000000000e+008
  +1.81000000000e+008
  +1.82000000000e+008
  +1.83000000000e+008
  +1.84000000000e+008
  +1.85000000000e+008
  +1.86000000000e+008
  +1.87000000000e+008
  +1.88000000000e+008
  +1.89000000000e+008
  +1.90000000000e+008
  +1.91000000000e+008
  +1.92000000000e+008
  +1.93000000000e+008
  +1.94000000000e+008
  +1.95000000000e+008
  +1.96000000000e+008
  +1.97000000000e+008
  +1.98000000000e+008
  +1.99000000000e+008
  +2.00000000000e+008
  +2.01000000000e+008
  +2.02000000000e+008
  +2.03000000000e+008
  +2.04000000000e+008
  +2.05000000000e+008
  +2.06000000000e+008
  +2.07000000000e+008
  +2.08000000000e+008
  +2.09000000000e+008
  +2.10000000000e+008
  +2.11000000000e+008
  +2.12000000000e+008
  +2.13000000000e+008
  +2.14000000000e+008
  +2.15000000000e+008
  +2.16000000000e+008
  +2.17000000000e+008
  +2.18000000000e+008
  +2.19000000000e+008
  +2.20000000000e+008
  +2.21000000000e+008
  +2.22000000000e+008
  +2.23000000000e+008
  +2.24000000000e+008
  +2.25000000000e+008
  +2.26000000000e+008
  +2.27000000000e+008
  +2.28000000000e+008
  +2.29000000000e+008
  +2.30000000000e+008
  +2.31000000000e+008
  +2.32000000000e+008
  +2.33000000000e+008
  +2.34000000000e+008
  +2.35000000000e+008
  +2.36000000000e+008
  +2.37000000000e+008
  +2.38000000000e+008
  +2.39000000000e+008
  +2.40000000000e+008
  +2.41000000000e+008
  +2.42000000000e+008
  +2.43000000000e+008
  +2.44000000000e+008
  +2.45000000000e+008
  +2.46000000000e+008
  +2.47000000000e+008
  +2.48000000000e+008
  +2.49000000000e+008
  +2.50000000000e+008
  +2.51000000000e+008
  +2.52000000000e+008
  +2.53000000000e+008
  +2.54000000000e+008
  +2.55000000000e+008
  +2.56000000000e+008
  +2.57000000000e+008
  +2.58000000000e+008
  +2.59000000000e+008
  +2.60000000000e+008
  +2.61000000000e+008
  +2.62000000000e+008
  +2.63000000000e+008
  +2.64000000000e+008
  +2.65000000000e+008
  +2.66000000000e+008
  +2.67000000000e+008
  +2.68000000000e+008
  +2.69000000000e+008
  +2.70000000000e+008
  +2.71000000000e+008
  +2.72000000000e+008
  +2.73000000000e+008
  +2.74000000000e+008
  +2.75000000000e+008
  +2.76000000000e+008
  +2.77000000000e+008
  +2.78000000000e+008
  +2.79000000000e+008
  +2.80000000000e+008
  +2.81000000000e+008
  +2.82000000000e+008
  +2.83000000000e+008
  +2.84000000000e+008
  +2.85000000000e+008
  +2.86000000000e+008
  +2.87000000000e+008
  +2.88000000000e+008
  +2.89000000000e+008
  +2.90000000000e+008
  +2.91000000000e+008
  +2.92000000000e+008
  +2.93000000000e+008
  +2.94000000000e+008
  +2.95000000000e+008
  +2.96000000000e+008
  +2.97000000000e+008
  +2.98000000000e+008
  +2.99000000000e+008
  +3.00000000000e+008
</indep>
<dep diff_pahse frequency>
  +8.91566103299e+001
  +8.93893392961e+001
  +8.94943941894e+001
  +8.95588279852e+001
  +8.96045029524e+001
  +8.96398437710e+001
  +8.96688774935e+001
  +8.96938051419e+001
  +8.97159471241e+001
  +8.97361528148e+001
  +8.97549997989e+001
  +8.97728996078e+001
  +8.97901578086e+001
  +8.98070101242e+001
  +8.98236452114e+001
  +8.98402196586e+001
  +8.98568682755e+001
  +8.98737114574e+001
  +8.98908607032e+001
  +8.99084229716e+001
  +8.99265043334e+001
  +8.99452132424e+001
  +8.99646636759e+001
  +8.99849783568e+001
  +9.00062922621e+001
  +9.00287566360e+001
  +9.00525437651e+001
  +9.00778528419e+001
  +9.01049173480e+001
  +9.01340145503e+001
  +9.01654779513e+001
  +9.01997139088e+001
  +9.02372242269e+001
  +9.02786374474e+001
  +9.03247530804e+001
  +9.03766055378e+001
  +9.04355588782e+001
  +9.05034512578e+001
  +9.05828224714e+001
  +9.06772863073e+001
  +9.07921680472e+001
  +9.09356570766e+001
  +9.11210357493e+001
  +9.13713728177e+001
  +9.17305778674e+001
  +9.22938018613e+001
  +9.33128823467e+001
  +9.57427432314e+001
  +1.09063949017e+002
  -1.04230894399e+002
  -9.53737802077e+001
  -9.33213373015e+001
  -9.24053240797e+001
  -9.18829028786e+001
  -9.15425441931e+001
  -9.13011187091e+001
  -9.11193093149e+001
  -9.09761016745e+001
  -9.08592368170e+001
  -9.07610741616e+001
  -9.06765966406e+001
  -9.06023665963e+001
  -9.05359425436e+001
  -9.04755355690e+001
  -9.04197976744e+001
  -9.03676863092e+001
  -9.03183746806e+001
  -9.02711905046e+001
  -9.02255729163e+001
  -9.01810412255e+001
  -9.01371715041e+001
  -9.00935783663e+001
  -9.00499001338e+001
  -9.00057860846e+001
  -8.99608847834e+001
  -8.99148326451e+001
  -8.98672419330e+001
  -8.98176873414e+001
  -8.97656901567e+001
  -8.97106987066e+001
  -8.96520633291e+001
  -8.95890033389e+001
  -8.95205622547e+001
  -8.94455455908e+001
  -8.93624322602e+001
  -8.92692451032e+001
  -8.91633562935e+001
  -8.90411855283e+001
  -8.88977147409e+001
  -8.87256741830e+001
  -8.85141068948e+001
  -8.82456767237e+001
  -8.78912180810e+001
  -8.73975537361e+001
  -8.66563794607e+001
  -8.54079903792e+001
  -8.28366440560e+001
  -7.44476472173e+001
  +3.41654486784e+001
  +7.84543980220e+001
  +8.37233711378e+001
  +8.57016106497e+001
  +8.67426245921e+001
  +8.73891523782e+001
  +8.78330017462e+001
  +8.81591434170e+001
  +8.84109995357e+001
  +8.86130796436e+001
  +8.87802756565e+001
  +8.89221675861e+001
  +8.90452077125e+001
  +8.91539103200e+001
  +8.92515381380e+001
  +8.93405177461e+001
  +8.94227013392e+001
  +8.94995375849e+001
  +8.95721867113e+001
  +8.96416003329e+001
  +8.97085784215e+001
  +8.97738111925e+001
  +8.98379109261e+001
  +8.99014370897e+001
  +8.99649171093e+001
  +9.00288645210e+001
  +9.00937958777e+001
  +9.01602476129e+001
  +9.02287940429e+001
  +9.03000678101e+001
  +9.03747843577e+001
  +9.04537725298e+001
  +9.05380142201e+001
  +9.06286973104e+001
  +9.07272882798e+001
  +9.08356343664e+001
  +9.09561110623e+001
  +9.10918409590e+001
  +9.12470283710e+001
  +9.14274887054e+001
  +9.16415195691e+001
  +9.19014025102e+001
  +9.22261414050e+001
  +9.26468141290e+001
  +9.32179940709e+001
  +9.40451283707e+001
  +9.53616702688e+001
  +9.78063015074e+001
  +1.03945276836e+002
  +1.40467322506e+002
  -1.13154660988e+002
  -1.00323738765e+002
  -9.65905532783e+001
  -9.48187624643e+001
  -9.37790565684e+001
  -9.30908334533e+001
  -9.25980296403e+001
  -9.22248814131e+001
  -9.19301691869e+001
  -9.16895361175e+001
  -9.14876540761e+001
  -9.13143832448e+001
  -9.11627363488e+001
  -9.10277299216e+001
  -9.09057019888e+001
  -9.07938889462e+001
  -9.06901532694e+001
  -9.05928024698e+001
  -9.05004650834e+001
  -9.04120032915e+001
  -9.03264495791e+001
  -9.02429594055e+001
  -9.01607745960e+001
  -9.00791938385e+001
  -8.99975476935e+001
  -8.99151761452e+001
  -8.98314070544e+001
  -8.97455340026e+001
  -8.96567919584e+001
  -8.95643289436e+001
  -8.94671713865e+001
  -8.93641800193e+001
  -8.92539918408e+001
  -8.91349415129e+001
  -8.90049520545e+001
  -8.88613788640e+001
  -8.87007811154e+001
  -8.85185768967e+001
  -8.83085059208e+001
  -8.80617609527e+001
  -8.77655217016e+001
  -8.74003490865e+001
  -8.69352529922e+001
  -8.63175898919e+001
  -8.54501457650e+001
  -8.41314450730e+001
  -8.18659760380e+001
  -7.70342234686e+001
  -6.01958646270e+001
  +3.92765549672e+001
  +7.34660498248e+001
  +8.04242105514e+001
  +8.33028824551e+001
  +8.48785539981e+001
  +8.58781721881e+001
  +8.65735008679e+001
  +8.70888895820e+001
  +8.74892450701e+001
  +8.78117578884e+001
  +8.80792793624e+001
  +8.83066376546e+001
  +8.85038884782e+001
  +8.86781060684e+001
  +8.88344260671e+001
  +8.89766814333e+001
  +8.91078057084e+001
  +8.92300976418e+001
  +8.93454002470e+001
  +8.94552254609e+001
  +8.95608433820e+001
  +8.96633480208e+001
  +8.97637073158e+001
  +8.98628026231e+001
  +8.99614613295e+001
  +9.00604852824e+001
  +9.01606771779e+001
  +9.02628667799e+001
  +9.03679388061e+001
  +9.04768645078e+001
  +9.05907394143e+001
  +9.07108305020e+001
  +9.08386373410e+001
  +9.09759738503e+001
  +9.11250806574e+001
  +9.12887836029e+001
  +9.14707233041e+001
  +9.16756970303e+001
  +9.19101836998e+001
  +9.21831785807e+001
  +9.25075748951e+001
  +9.29025621620e+001
  +9.33980359331e+001
  +9.40433035273e+001
  +9.49259002404e+001
  +9.62174316098e+001
  +9.83055372120e+001
  +1.02282316538e+002
  +1.12720415261e+002
  +1.67798648361e+002
  -1.17262991575e+002
  -1.03707762552e+002
  -9.90485294029e+001
  -9.67113403117e+001
  -9.53016005787e+001
  -9.43529986335e+001
  -9.36663634246e+001
  -9.31425044693e+001
  -9.27265011049e+001
  -9.23854808445e+001
  -9.20985523093e+001
  -9.18517878582e+001
  -9.16355296272e+001
  -9.14428537496e+001
  -9.12686504663e+001
  -9.11090496692e+001
  -9.09610490168e+001
  -9.08222653978e+001
  -9.06907639240e+001
  -9.05649369567e+001
  -9.04434161004e+001
  -9.03250062303e+001
  -9.02086343136e+001
  -9.00933080492e+001
  -8.99780807481e+001
  -8.98620197074e+001
  -8.97441757888e+001
  -8.96235520709e+001
  -8.94990693478e+001
  -8.93695258735e+001
  -8.92335480298e+001
  -8.90895273889e+001
  -8.89355376881e+001
  -8.87692220849e+001
  -8.85876359181e+001
  -8.83870216073e+001
  -8.81624775475e+001
  -8.79074565800e+001
  -8.76129809747e+001
  -8.72663665536e+001
  -8.68490555355e+001
  -8.63327361296e+001
  -8.56719316543e+001
  -8.47886542485e+001
  -8.35371113800e+001
  -8.16101489256e+001
  -7.82349570652e+001
  -7.08067021801e+001
  -4.43509422027e+001
  +4.19763902558e+001
  +7.01788179020e+001
  +7.78934583772e+001
  +8.13565292615e+001
</dep>
<dep phaseS21 frequency>
  -3.64224898837e+000
  -7.28449797674e+000
  -1.09267469651e+001
  -1.45689959535e+001
  -1.82112449419e+001
  -2.18534939302e+001
  -2.54957429186e+001
  -2.91379919070e+001
  -3.27802408953e+001
  -3.64224898837e+001
  -4.00647388720e+001
  -4.37069878604e+001
  -4.73492368487e+001
  -5.09914858371e+001
  -5.46337348254e+001
  -5.82759838138e+001
  -6.19182328021e+001
  -6.55604817905e+001
  -6.92027307788e+001
  -7.28449797672e+001
  -7.64872287555e+001
  -8.01294777438e+001
  -8.37717267322e+001
  -8.74139757205e+001
  -9.10562247088e+001
  -9.46984736972e+001
  -9.83407226855e+001
  -1.01982971674e+002
  -1.05625220662e+002
  -1.09267469651e+002
  -1.12909718639e+002
  -1.16551967627e+002
  -1.20194216616e+002
  -1.23836465604e+002
  -1.27478714592e+002
  -1.31120963581e+002
  -1.34763212569e+002
  -1.38405461557e+002
  -1.42047710546e+002
  -1.45689959534e+002
  -1.49332208522e+002
  -1.52974457511e+002
  -1.56616706499e+002
  -1.60258955487e+002
  -1.63901204476e+002
  -1.67543453464e+002
  -1.71185702453e+002
  -1.74827951441e+002
  -1.78470200429e+002
  +1.77887550582e+002
  +1.74245301594e+002
  +1.70603052606e+002
  +1.66960803617e+002
  +1.63318554629e+002
  +1.59676305640e+002
  +1.56034056652e+002
  +1.52391807664e+002
  +1.48749558675e+002
  +1.45107309687e+002
  +1.41465060699e+002
  +1.37822811710e+002
  +1.34180562722e+002
  +1.30538313734e+002
  +1.26896064745e+002
  +1.23253815757e+002
  +1.19611566769e+002
  +1.15969317780e+002
  +1.12327068792e+002
  +1.08684819804e+002
  +1.05042570815e+002
  +1.01400321827e+002
  +9.77580728385e+001
  +9.41158238502e+001
  +9.04735748618e+001
  +8.68313258735e+001
  +8.31890768852e+001
  +7.95468278968e+001
  +7.59045789085e+001
  +7.22623299202e+001
  +6.86200809318e+001
  +6.49778319435e+001
  +6.13355829551e+001
  +5.76933339668e+001
  +5.40510849784e+001
  +5.04088359901e+001
  +4.67665870017e+001
  +4.31243380134e+001
  +3.94820890250e+001
  +3.58398400367e+001
  +3.21975910483e+001
  +2.85553420599e+001
  +2.49130930716e+001
  +2.12708440832e+001
  +1.76285950948e+001
  +1.39863461065e+001
  +1.03440971181e+001
  +6.70184812974e+000
  +3.05959914137e+000
  -5.82649847006e-001
  -4.22489883538e+000
  -7.86714782375e+000
  -1.15093968121e+001
  -1.51516458005e+001
  -1.87938947889e+001
  -2.24361437772e+001
  -2.60783927656e+001
  -2.97206417540e+001
  -3.33628907423e+001
  -3.70051397307e+001
  -4.06473887190e+001
  -4.42896377074e+001
  -4.79318866957e+001
  -5.15741356841e+001
  -5.52163846724e+001
  -5.88586336608e+001
  -6.25008826491e+001
  -6.61431316375e+001
  -6.97853806258e+001
  -7.34276296142e+001
  -7.70698786025e+001
  -8.07121275908e+001
  -8.43543765792e+001
  -8.79966255675e+001
  -9.16388745558e+001
  -9.52811235442e+001
  -9.89233725325e+001
  -1.02565621521e+002
  -1.06207870509e+002
  -1.09850119498e+002
  -1.13492368486e+002
  -1.17134617474e+002
  -1.20776866463e+002
  -1.24419115451e+002
  -1.28061364439e+002
  -1.31703613428e+002
  -1.35345862416e+002
  -1.38988111404e+002
  -1.42630360393e+002
  -1.46272609381e+002
  -1.49914858369e+002
  -1.53557107358e+002
  -1.57199356346e+002
  -1.60841605334e+002
  -1.64483854323e+002
  -1.68126103311e+002
  -1.71768352300e+002
  -1.75410601288e+002
  -1.79052850276e+002
  +1.77304900735e+002
  +1.73662651747e+002
  +1.70020402759e+002
  +1.66378153770e+002
  +1.62735904782e+002
  +1.59093655793e+002
  +1.55451406805e+002
  +1.51809157817e+002
  +1.48166908828e+002
  +1.44524659840e+002
  +1.40882410852e+002
  +1.37240161863e+002
  +1.33597912875e+002
  +1.29955663887e+002
  +1.26313414898e+002
  +1.22671165910e+002
  +1.19028916922e+002
  +1.15386667933e+002
  +1.11744418945e+002
  +1.08102169957e+002
  +1.04459920968e+002
  +1.00817671980e+002
  +9.71754229915e+001
  +9.35331740032e+001
  +8.98909250148e+001
  +8.62486760265e+001
  +8.26064270382e+001
  +7.89641780498e+001
  +7.53219290615e+001
  +7.16796800731e+001
  +6.80374310848e+001
  +6.43951820965e+001
  +6.07529331081e+001
  +5.71106841198e+001
  +5.34684351314e+001
  +4.98261861431e+001
  +4.61839371547e+001
  +4.25416881664e+001
  +3.88994391780e+001
  +3.52571901897e+001
  +3.16149412013e+001
  +2.79726922129e+001
  +2.43304432246e+001
  +2.06881942362e+001
  +1.70459452478e+001
  +1.34036962595e+001
  +9.76144727110e+000
  +6.11919828273e+000
  +2.47694929436e+000
  -1.16529969401e+000
  -4.80754868238e+000
  -8.44979767075e+000
  -1.20920466591e+001
  -1.57342956475e+001
  -1.93765446359e+001
  -2.30187936242e+001
  -2.66610426126e+001
  -3.03032916010e+001
  -3.39455405893e+001
  -3.75877895777e+001
  -4.12300385660e+001
  -4.48722875544e+001
  -4.85145365427e+001
  -5.21567855311e+001
  -5.57990345194e+001
  -5.94412835078e+001
  -6.30835324961e+001
  -6.67257814845e+001
  -7.03680304728e+001
  -7.40102794612e+001
  -7.76525284495e+001
  -8.12947774378e+001
  -8.49370264262e+001
  -8.85792754145e+001
  -9.22215244028e+001
  -9.58637733912e+001
  -9.95060223795e+001
  -1.03148271368e+002
  -1.06790520356e+002
  -1.10432769345e+002
  -1.14075018333e+002
  -1.17717267321e+002
  -1.21359516310e+002
  -1.25001765298e+002
  -1.28644014286e+002
  -1.32286263275e+002
  -1.35928512263e+002
  -1.39570761251e+002
  -1.43213010240e+002
  -1.46855259228e+002
  -1.50497508216e+002
  -1.54139757205e+002
  -1.57782006193e+002
  -1.61424255181e+002
  -1.65066504170e+002
  -1.68708753158e+002
  -1.72351002147e+002
  -1.75993251135e+002
  -1.79635500123e+002
  +1.76722250888e+002
  +1.73080001900e+002
  +1.69437752912e+002
  +1.65795503923e+002
  +1.62153254935e+002
  +1.58511005946e+002
  +1.54868756958e+002
  +1.51226507970e+002
  +1.47584258981e+002
  +1.43942009993e+002
  +1.40299761005e+002
  +1.36657512016e+002
  +1.33015263028e+002
  +1.29373014040e+002
  +1.25730765051e+002
  +1.22088516063e+002
  +1.18446267075e+002
  +1.14804018086e+002
  +1.11161769098e+002
  +1.07519520110e+002
  +1.03877271121e+002
  +1.00235022133e+002
  +9.65927731445e+001
  +9.29505241562e+001
  +8.93082751678e+001
  +8.56660261795e+001
  +8.20237771912e+001
  +7.83815282028e+001
  +7.47392792145e+001
  +7.10970302261e+001
  +6.74547812378e+001
  +6.38125322495e+001
  +6.01702832611e+001
  +5.65280342728e+001
  +5.28857852844e+001
  +4.92435362961e+001
  +4.56012873077e+001
  +4.19590383194e+001
  +3.83167893310e+001
  +3.46745403427e+001
  +3.10322913543e+001
  +2.73900423659e+001
  +2.37477933776e+001
  +2.01055443892e+001
  +1.64632954008e+001
  +1.28210464125e+001
  +9.17879742410e+000
  +5.53654843573e+000
  +1.89429944735e+000
  -1.74794954102e+000
  -5.39019852939e+000
  -9.03244751776e+000
  -1.26746965061e+001
</dep>
<dep phaseS11 frequency>
  +8.55143613415e+001
  +8.21048413193e+001
