<Qucs Dataset 0.0.18>
<indep frequency 300>
  +1.00000000000e+006
  +2.00000000000e+006
  +3.00000000000e+006
  +4.00000000000e+006
  +5.00000000000e+006
  +6.00000000000e+006
  +7.00000000000e+006
  +8.00000000000e+006
  +9.00000000000e+006
  +1.00000000000e+007
  +1.10000000000e+007
  +1.20000000000e+007
  +1.30000000000e+007
  +1.40000000000e+007
  +1.50000000000e+007
  +1.60000000000e+007
  +1.70000000000e+007
  +1.80000000000e+007
  +1.90000000000e+007
  +2.00000000000e+007
  +2.10000000000e+007
  +2.20000000000e+007
  +2.30000000000e+007
  +2.40000000000e+007
  +2.50000000000e+007
  +2.60000000000e+007
  +2.70000000000e+007
  +2.80000000000e+007
  +2.90000000000e+007
  +3.00000000000e+007
  +3.10000000000e+007
  +3.20000000000e+007
  +3.30000000000e+007
  +3.40000000000e+007
  +3.50000000000e+007
  +3.60000000000e+007
  +3.70000000000e+007
  +3.80000000000e+007
  +3.90000000000e+007
  +4.00000000000e+007
  +4.10000000000e+007
  +4.20000000000e+007
  +4.30000000000e+007
  +4.40000000000e+007
  +4.50000000000e+007
  +4.60000000000e+007
  +4.70000000000e+007
  +4.80000000000e+007
  +4.90000000000e+007
  +5.00000000000e+007
  +5.10000000000e+007
  +5.20000000000e+007
  +5.30000000000e+007
  +5.40000000000e+007
  +5.50000000000e+007
  +5.60000000000e+007
  +5.70000000000e+007
  +5.80000000000e+007
  +5.90000000000e+007
  +6.00000000000e+007
  +6.10000000000e+007
  +6.20000000000e+007
  +6.30000000000e+007
  +6.40000000000e+007
  +6.50000000000e+007
  +6.60000000000e+007
  +6.70000000000e+007
  +6.80000000000e+007
  +6.90000000000e+007
  +7.00000000000e+007
  +7.10000000000e+007
  +7.20000000000e+007
  +7.30000000000e+007
  +7.40000000000e+007
  +7.50000000000e+007
  +7.60000000000e+007
  +7.70000000000e+007
  +7.80000000000e+007
  +7.90000000000e+007
  +8.00000000000e+007
  +8.10000000000e+007
  +8.20000000000e+007
  +8.30000000000e+007
  +8.40000000000e+007
  +8.50000000000e+007
  +8.60000000000e+007
  +8.70000000000e+007
  +8.80000000000e+007
  +8.90000000000e+007
  +9.00000000000e+007
  +9.10000000000e+007
  +9.20000000000e+007
  +9.30000000000e+007
  +9.40000000000e+007
  +9.50000000000e+007
  +9.60000000000e+007
  +9.70000000000e+007
  +9.80000000000e+007
  +9.90000000000e+007
  +1.00000000000e+008
  +1.01000000000e+008
  +1.02000000000e+008
  +1.03000000000e+008
  +1.04000000000e+008
  +1.05000000000e+008
  +1.06000000000e+008
  +1.07000000000e+008
  +1.08000000000e+008
  +1.09000000000e+008
  +1.10000000000e+008
  +1.11000000000e+008
  +1.12000000000e+008
  +1.13000000000e+008
  +1.14000000000e+008
  +1.15000000000e+008
  +1.16000000000e+008
  +1.17000000000e+008
  +1.18000000000e+008
  +1.19000000000e+008
  +1.20000000000e+008
  +1.21000000000e+008
  +1.22000000000e+008
  +1.23000000000e+008
  +1.24000000000e+008
  +1.25000000000e+008
  +1.26000000000e+008
  +1.27000000000e+008
  +1.28000000000e+008
  +1.29000000000e+008
  +1.30000000000e+008
  +1.31000000000e+008
  +1.32000000000e+008
  +1.33000000000e+008
  +1.34000000000e+008
  +1.35000000000e+008
  +1.36000000000e+008
  +1.37000000000e+008
  +1.38000000000e+008
  +1.39000000000e+008
  +1.40000000000e+008
  +1.41000000000e+008
  +1.42000000000e+008
  +1.43000000000e+008
  +1.44000000000e+008
  +1.45000000000e+008
  +1.46000000000e+008
  +1.47000000000e+008
  +1.48000000000e+008
  +1.49000000000e+008
  +1.50000000000e+008
  +1.51000000000e+008
  +1.52000000000e+008
  +1.53000000000e+008
  +1.54000000000e+008
  +1.55000000000e+008
  +1.56000000000e+008
  +1.57000000000e+008
  +1.58000000000e+008
  +1.59000000000e+008
  +1.60000000000e+008
  +1.61000000000e+008
  +1.62000000000e+008
  +1.63000000000e+008
  +1.64000000000e+008
  +1.65000000000e+008
  +1.66000000000e+008
  +1.67000000000e+008
  +1.68000000000e+008
  +1.69000000000e+008
  +1.70000000000e+008
  +1.71000000000e+008
  +1.72000000000e+008
  +1.73000000000e+008
  +1.74000000000e+008
  +1.75000000000e+008
  +1.76000000000e+008
  +1.77000000000e+008
  +1.78000000000e+008
  +1.79000000000e+008
  +1.80000000000e+008
  +1.81000000000e+008
  +1.82000000000e+008
  +1.83000000000e+008
  +1.84000000000e+008
  +1.85000000000e+008
  +1.86000000000e+008
  +1.87000000000e+008
  +1.88000000000e+008
  +1.89000000000e+008
  +1.90000000000e+008
  +1.91000000000e+008
  +1.92000000000e+008
  +1.93000000000e+008
  +1.94000000000e+008
  +1.95000000000e+008
  +1.96000000000e+008
  +1.97000000000e+008
  +1.98000000000e+008
  +1.99000000000e+008
  +2.00000000000e+008
  +2.01000000000e+008
  +2.02000000000e+008
  +2.03000000000e+008
  +2.04000000000e+008
  +2.05000000000e+008
  +2.06000000000e+008
  +2.07000000000e+008
  +2.08000000000e+008
  +2.09000000000e+008
  +2.10000000000e+008
  +2.11000000000e+008
  +2.12000000000e+008
  +2.13000000000e+008
  +2.14000000000e+008
  +2.15000000000e+008
  +2.16000000000e+008
  +2.17000000000e+008
  +2.18000000000e+008
  +2.19000000000e+008
  +2.20000000000e+008
  +2.21000000000e+008
  +2.22000000000e+008
  +2.23000000000e+008
  +2.24000000000e+008
  +2.25000000000e+008
  +2.26000000000e+008
  +2.27000000000e+008
  +2.28000000000e+008
  +2.29000000000e+008
  +2.30000000000e+008
  +2.31000000000e+008
  +2.32000000000e+008
  +2.33000000000e+008
  +2.34000000000e+008
  +2.35000000000e+008
  +2.36000000000e+008
  +2.37000000000e+008
  +2.38000000000e+008
  +2.39000000000e+008
  +2.40000000000e+008
  +2.41000000000e+008
  +2.42000000000e+008
  +2.43000000000e+008
  +2.44000000000e+008
  +2.45000000000e+008
  +2.46000000000e+008
  +2.47000000000e+008
  +2.48000000000e+008
  +2.49000000000e+008
  +2.50000000000e+008
  +2.51000000000e+008
  +2.52000000000e+008
  +2.53000000000e+008
  +2.54000000000e+008
  +2.55000000000e+008
  +2.56000000000e+008
  +2.57000000000e+008
  +2.58000000000e+008
  +2.59000000000e+008
  +2.60000000000e+008
  +2.61000000000e+008
  +2.62000000000e+008
  +2.63000000000e+008
  +2.64000000000e+008
  +2.65000000000e+008
  +2.66000000000e+008
  +2.67000000000e+008
  +2.68000000000e+008
  +2.69000000000e+008
  +2.70000000000e+008
  +2.71000000000e+008
  +2.72000000000e+008
  +2.73000000000e+008
  +2.74000000000e+008
  +2.75000000000e+008
  +2.76000000000e+008
  +2.77000000000e+008
  +2.78000000000e+008
  +2.79000000000e+008
  +2.80000000000e+008
  +2.81000000000e+008
  +2.82000000000e+008
  +2.83000000000e+008
  +2.84000000000e+008
  +2.85000000000e+008
  +2.86000000000e+008
  +2.87000000000e+008
  +2.88000000000e+008
  +2.89000000000e+008
  +2.90000000000e+008
  +2.91000000000e+008
  +2.92000000000e+008
  +2.93000000000e+008
  +2.94000000000e+008
  +2.95000000000e+008
  +2.96000000000e+008
  +2.97000000000e+008
  +2.98000000000e+008
  +2.99000000000e+008
  +3.00000000000e+008
</indep>
<dep phaseS21 frequency>
  +8.18774558251e+001
  +7.48543395180e+001
  +6.77472343007e+001
  +6.06621822126e+001
  +5.36378151952e+001
  +4.66966540163e+001
  +3.98539234408e+001
  +3.31200982685e+001
  +2.65019855975e+001
  +2.00033895078e+001
  +1.36256386372e+001
  +7.36805326760e+000
  +1.22836772722e+000
  -4.79689301224e+000
  -1.07120860392e+001
  -1.65221738957e+001
  -2.22324972000e+001
  -2.78485927487e+001
  -3.33760519372e+001
  -3.88204137325e+001
  -4.41870864247e+001
  -4.94812927694e+001
  -5.47080337280e+001
  -5.98720666934e+001
  -6.49778947726e+001
  -7.00297643294e+001
  -7.50316685503e+001
  -7.99873552739e+001
  -8.49003377230e+001
  -8.97739070987e+001
  -9.46111462596e+001
  -9.94149439081e+001
  -1.04188008871e+002
  -1.08932884183e+002
  -1.13651960769e+002
  -1.18347490611e+002
  -1.23021599311e+002
  -1.27676298031e+002
  -1.32313494789e+002
  -1.36935005137e+002
  -1.41542562250e+002
  -1.46137826460e+002
  -1.50722394277e+002
  -1.55297806964e+002
  -1.59865558695e+002
  -1.64427104369e+002
  -1.68983867123e+002
  -1.73537245594e+002
  -1.78088621002e+002
  +1.77360635925e+002
  +1.72809158099e+002
  +1.68255575262e+002
  +1.63698507165e+002
  +1.59136556678e+002
  +1.54568302792e+002
  +1.49992293447e+002
  +1.45407038157e+002
  +1.40811000366e+002
  +1.36202589502e+002
  +1.31580152675e+002
  +1.26941965975e+002
  +1.22286225353e+002
  +1.17611037026e+002
  +1.12914407417e+002
  +1.08194232603e+002
  +1.03448287311e+002
  +9.86742134854e+001
  +9.38695085298e+001
  +8.90315133539e+001
  +8.41574004337e+001
  +7.92441621865e+001
  +7.42886000832e+001
  +6.92873150792e+001
  +6.42367001529e+001
  +5.91329360059e+001
  +5.39719913231e+001
  +4.87496294217e+001
  +4.34614236731e+001
  +3.81027847716e+001
  +3.26690037920e+001
  +2.71553160696e+001
  +2.15569923084e+001
  +1.58694650893e+001
  +1.00885013022e+001
  +4.21043434201e+000
  -1.76752503259e+000
  -7.84687182113e+000
  -1.40272411159e+001
  -2.03056206035e+001
  -2.66752048243e+001
  -3.31236140747e+001
  -3.96298672083e+001
  -4.61586388738e+001
  -5.26478663407e+001
  -5.89775460779e+001
  -6.48735324353e+001
  -6.95031591683e+001
  -6.83527767452e+001
  +3.30044284500e+001
  +7.00412331074e+001
  +6.80826735679e+001
  +6.28779034174e+001
  +5.67986766656e+001
  +5.04037516810e+001
  +4.38983495069e+001
  +3.73780624675e+001
  +3.08941348040e+001
  +2.44762379361e+001
  +1.81420119841e+001
  +1.19016842554e+001
  +5.76059566652e+000
  -2.79267107935e-001
  -6.21826352695e+000
  -1.20583958682e+001
  -1.78027997736e+001
  -2.34553674954e+001
  -2.90204669781e+001
  -3.45027325753e+001
  -3.99069103593e+001
  -4.52377453868e+001
  -5.04999012534e+001
  -5.56979044128e+001
  -6.08361073672e+001
  -6.59186661055e+001
  -7.09495281791e+001
  -7.59324286076e+001
  -8.08708914463e+001
  -8.57682353534e+001
  -9.06275818974e+001
  -9.54518656517e+001
  -1.00243845373e+002
  -1.05006115743e+002
  -1.09741119300e+002
  -1.14451158297e+002
  -1.19138406305e+002
  -1.23804919447e+002
  -1.28452647189e+002
  -1.33083442654e+002
  -1.37699072452e+002
  -1.42301226026e+002
  -1.46891524552e+002
  -1.51471529400e+002
  -1.56042750221e+002
  -1.60606652678e+002
  -1.65164665877e+002
  -1.69718189540e+002
  -1.74268600972e+002
  -1.78817261857e+002
  +1.76634475059e+002
  +1.72085259352e+002
  +1.67533736337e+002
  +1.62978540453e+002
  +1.58418288587e+002
  +1.53851573279e+002
  +1.49276955776e+002
  +1.44692958876e+002
  +1.40098059537e+002
  +1.35490681197e+002
  +1.30869185774e+002
  +1.26231865315e+002
  +1.21576933273e+002
  +1.16902515382e+002
  +1.12206640150e+002
  +1.07487228968e+002
  +1.02742085890e+002
  +9.79688871633e+001
  +9.31651706198e+001
  +8.83283251339e+001
  +8.34555804034e+001
  +7.85439974378e+001
  +7.35904602721e+001
  +6.85916696145e+001
  +6.35441393759e+001
  +5.84441973424e+001
  +5.32879916550e+001
  +4.80715052838e+001
  +4.27905813457e+001
  +3.74409629812e+001
  +3.20183526132e+001
  +2.65184968647e+001
  +2.09373053489e+001
  +1.52710141975e+001
  +9.51640900458e+000
  +3.67112763293e+000
  -2.26592731553e+000
  -8.29402037412e+000
  -1.44097835218e+001
  -2.06060503628e+001
  -2.68700677811e+001
  -3.31805598040e+001
  -3.95024814153e+001
  -4.57766507927e+001
  -5.18966529122e+001
  -5.76490939763e+001
  -6.25239305226e+001
  -6.48847854918e+001
  -5.52726081865e+001
  +3.69600275418e+001
  +6.39166172854e+001
  +6.36689605247e+001
  +5.93880828913e+001
  +5.38679618490e+001
  +4.78508257071e+001
  +4.16211720760e+001
  +3.53133790958e+001
  +2.89996858086e+001
  +2.27220636117e+001
  +1.65058361139e+001
  +1.03662977419e+001
  +4.31229254710e+000
  -1.65166821413e+000
  -7.52405725013e+000
  -1.33054219227e+001
  -1.89977459746e+001
  -2.46039896464e+001
  -3.01277534448e+001
  -3.55730309215e+001
  -4.09440271646e+001
  -4.62450265393e+001
  -5.14802976259e+001
  -5.66540263146e+001
  -6.17702701767e+001
  -6.68329288426e+001
  -7.18457263297e+001
  -7.68122022108e+001
  -8.17357092327e+001
  -8.66194155679e+001
  -9.14663103156e+001
  -9.62792112115e+001
  -1.01060773769e+002
  -1.05813501275e+002
  -1.10539755221e+002
  -1.15241765865e+002
  -1.19921642721e+002
  -1.24581384821e+002
  -1.29222890665e+002
  -1.33847967805e+002
  -1.38458342037e+002
  -1.43055666189e+002
  -1.47641528527e+002
  -1.52217460795e+002
  -1.56784945912e+002
  -1.61345425370e+002
  -1.65900306362e+002
  -1.70450968689e+002
  -1.74998771475e+002
  -1.79545059744e+002
  +1.75908829101e+002
  +1.71361558869e+002
  +1.66811788170e+002
  +1.62258163989e+002
  +1.57699315188e+002
  +1.53133845897e+002
  +1.48560328754e+002
  +1.43977297961e+002
  +1.39383242107e+002
  +1.34776596740e+002
  +1.30155736646e+002
  +1.25518967825e+002
  +1.20864519134e+002
  +1.16190533615e+002
  +1.11495059504e+002
  +1.06776040976e+002
  +1.02031308677e+002
  +9.72585701750e+001
  +9.24554004645e+001
  +8.76192327875e+001
  +8.27473500852e+001
  +7.78368775404e+001
  +7.28847768295e+001
  +6.78878429145e+001
  +6.28427044826e+001
  +5.77458295021e+001
  +5.25935378282e+001
  +4.73820233992e+001
  +4.21073893537e+001
  +3.67657004273e+001
  +3.13530583570e+001
  +2.58657078509e+001
  +2.03001832066e+001
  +1.46535092604e+001
  +8.92347570625e+000
  +3.10901224247e+000
  -2.78929401732e+000
  -8.76847280366e+000
  -1.48221247102e+001
  -2.09388529064e+001
  -2.70997830128e+001
  -3.32743668575e+001
  -3.94126779484e+001
  -4.54298255186e+001
  -5.11705115071e+001
  -5.63154504004e+001
  -6.00772081269e+001
  -5.98341399215e+001
  -4.05932818748e+001
  +3.85090451080e+001
  +5.94963472432e+001
  +6.00253453274e+001
  +5.63507623213e+001
</dep>
<dep phaseS11 frequency>
  +1.72722552549e+002
  +1.65469969196e+002
  +1.58262175902e+002
  +1.51118011241e+002
  +1.44054166967e+002
  +1.37084695300e+002
  +1.30220770330e+002
  +1.23470656139e+002
  +1.16839840396e+002
  +1.10331287671e+002
  +1.03945766822e+002
  +9.76822118972e+001
  +9.15380843643e+001
  +8.55097137817e+001
  +7.95926027462e+001
  +7.37816891607e+001
  +6.80715642154e+001
  +6.24566480726e+001
  +5.69313273760e+001
  +5.14900597183e+001
  +4.61274504593e+001
  +4.08383070575e+001
  +3.56176755891e+001
  +3.04608635282e+001
  +2.53634522457e+001
  +2.03213021185e+001
  +1.53305526534e+001
  +1.03876196457e+001
  +5.48919111769e+000
  +6.32223634284e-001
  -4.18605941325e+000
  -8.96816578424e+000
  -1.37163264266e+001
  -1.84324785667e+001
  -2.31182354246e+001
  -2.77748356741e+001
  -3.24030614684e+001
  -3.70031061126e+001
  -4.15743579942e+001
  -4.61150390676e+001
  -5.06215775949e+001
  -5.50874652186e+001
  -5.95010372714e+001
  -6.38407880626e+001
  -6.80643247596e+001
  -7.20779748107e+001
  -7.56313484164e+001
  -7.77709461953e+001
  -6.90176122135e+001
  +7.31198596770e+001
  +7.74080782848e+001
  +7.48890114095e+001
  +7.12294849382e+001
  +6.71709012211e+001
  +6.29233275043e+001
  +5.85683963421e+001
  +5.41438857655e+001
  +4.96692205657e+001
  +4.51550111802e+001
  +4.06071817034e+001
  +3.60289553038e+001
  +3.14218883123e+001
  +2.67864428392e+001
  +2.21223191019e+001
  +1.74286551118e+001
  +1.27041494533e+001
  +7.94713755043e+000
  +3.15563877643e+000
  -1.67261526876e+000
  -6.54016490462e+000
  -1.14498147763e+001
  -1.64046316525e+001
  -2.14079454789e+001
  -2.64633519334e+001
  -3.15747148736e+001
  -3.67461670353e+001
  -4.19821071790e+001
  -4.72871915954e+001
  -5.26663174913e+001
  -5.81245953085e+001
  -6.36673064828e+001
  -6.92998425919e+001
  -7.50276213277e+001
  -8.08559743657e+001
  -8.67900021679e+001
  -9.28343912459e+001
  -9.89931907263e+001
  -1.05269547508e+002
  -1.11665403197e+002
  -1.18181161530e+002
  -1.24815342150e+002
  -1.31564244791e+002
  -1.38421656227e+002
  -1.45378638804e+002
  -1.52423441917e+002
  -1.59541573906e+002
  -1.66716060068e+002
  -1.73927892835e+002
  +1.78843345010e+002
  +1.71618729156e+002
  +1.64419180690e+002
  +1.57264667777e+002
  +1.50173496207e+002
  +1.43161747882e+002
  +1.36242902751e+002
  +1.29427653379e+002
  +1.22723897837e+002
  +1.16136879770e+002
  +1.09669435820e+002
  +1.03322309400e+002
  +9.70944940875e+001
  +9.09835773768e+001
  +8.49860638861e+001
  +7.90976650752e+001
  +7.33135490555e+001
  +6.76285489932e+001
  +6.20373319200e+001
  +5.65345317526e+001
  +5.11148512973e+001
  +4.57731382881e+001
  +4.05044403343e+001
  +3.53040432413e+001
  +3.01674966499e+001
  +2.50906304147e+001
  +2.00695646703e+001
  +1.51007161622e+001
  +1.01808031592e+001
  +5.30685116665e+000
  +4.76201744370e-001
  -4.31347293557e+000
  -9.06414646894e+000
  -1.37774010084e+001
  -1.84543698870e+001
  -2.30956500676e+001
  -2.77011685645e+001
  -3.22699767896e+001
  -3.67999283897e+001
  -4.12871616273e+001
  -4.57252393464e+001
  -5.01036576704e+001
  -5.44051174709e+001
  -5.86001820249e+001
  -6.26358643584e+001
  -6.64082574534e+001
  -6.96854099912e+001
  -7.18301117480e+001
  -7.02775566513e+001
  -3.83404516659e+001
  +6.34526786840e+001
  +7.16973452649e+001
  +7.08414754253e+001
  +6.80199676132e+001
  +6.44606672093e+001
  +6.05426837180e+001
  +5.64205520049e+001
  +5.21684631930e+001
  +4.78260119559e+001
  +4.34158691720e+001
  +3.89516067546e+001
  +3.44415283414e+001
  +2.98906947685e+001
  +2.53020618748e+001
  +2.06771512001e+001
  +1.60164607536e+001
  +1.13197241810e+001
  +6.58607789530e+000
  +1.81417038601e+000
  -2.99776586191e+000
  -7.85186717677e+000
  -1.27506080895e+001
  -1.76967818282e+001
  -2.26934880334e+001
  -2.77441247382e+001
  -3.28523821545e+001
  -3.80222360169e+001
  -4.32579382274e+001
  -4.85640023775e+001
  -5.39451814200e+001
  -5.94064343636e+001
  -6.49528783915e+001
  -7.05897223228e+001
  -7.63221769127e+001
  -8.21553372475e+001
  -8.80940325936e+001
  -9.41426397318e+001
  -1.00304857315e+002
  -1.06583441435e+002
  -1.12979906620e+002
  -1.19494202069e+002
  -1.26124379920e+002
  -1.32866280111e+002
  -1.39713263942e+002
  -1.46656033794e+002
  -1.53682577699e+002
  -1.60778272347e+002
  -1.67926165551e+002
  -1.75107439590e+002
  +1.77697967143e+002
  +1.70510626565e+002
  +1.63350840024e+002
  +1.56237882709e+002
  +1.49189341671e+002
  +1.42220600284e+002
  +1.35344499314e+002
  +1.28571180263e+002
  +1.21908095337e+002
  +1.15360153481e+002
  +1.08929964648e+002
  +1.02618143874e+002
  +9.64236411304e+001
  +9.03440699673e+001
  +8.43760158020e+001
  +7.85153120629e+001
  +7.27572784121e+001
  +6.70969198013e+001
  +6.15290881596e+001
  +5.60486103507e+001
  +5.06503869361e+001
  +4.53294665456e+001
  +4.00811005136e+001
  +3.49007820743e+001
  +2.97842739588e+001
  +2.47276277855e+001
  +1.97271982529e+001
  +1.47796548677e+001
  +9.88199381328e+000
  +5.03155262937e+000
  +2.26030688018e-001
  -4.53648087703e+000
  -9.25745494335e+000
  -1.39378630378e+001
  -1.85780787071e+001
  -2.31777339976e+001
  -2.77355040924e+001
  -3.22487788423e+001
  -3.67131503974e+001
  -4.11215903893e+001
  -4.54630795056e+001
  -4.97202196765e+001
  -5.38648342728e+001
  -5.78492717695e+001
  -6.15875984608e+001
  -6.49097647053e+001
  -6.74296492870e+001
  -6.80566414066e+001
  -6.22195620451e+001
  -1.17410483012e+001
  +5.85974475652e+001
  +6.75512226475e+001
  +6.76059598725e+001
  +6.53341441300e+001
  +6.21288810520e+001
  +5.84549633663e+001
  +5.45100056411e+001
  +5.03915960776e+001
  +4.61529987451e+001
  +4.18253662961e+001
  +3.74277976241e+001
  +3.29723452824e+001
  +2.84666988874e+001
  +2.39157096741e+001
  +1.93222984385e+001
  +1.46880172717e+001
  +1.00134079030e+001
  +5.29823584788e+000
  +5.41646166714e-001
  -4.25773165452e+000
  -9.10171259135e+000
  -1.39925077113e+001
  -1.89326911664e+001
  -2.39251773688e+001
  -2.89732044892e+001
  -3.40803211788e+001
  -3.92503737917e+001
  -4.44874915023e+001
  -4.97960666274e+001
  -5.51807272271e+001
  -6.06462987185e+001
  -6.61977508253e+001
  -7.18401257715e+001
  -7.75784432963e+001
  -8.34175779323e+001
  -8.93621042379e+001
  -9.54161065072e+001
  -1.01582951176e+002
  -1.07865022967e+002
  -1.14263429979e+002
  -1.20777688559e+002
  -1.27405405558e+002
  -1.34141983008e+002
  -1.40980376953e+002
  -1.47910946564e+002
  -1.54921429657e+002
  -1.61997074538e+002
  -1.69120944883e+002
  -1.76274394898e+002
  +1.76562310861e+002
  +1.69409280433e+002
  +1.62286243300e+002
  +1.55211833998e+002
</dep>
<dep dBS21 frequency>
  -2.39649404948e+001
  -1.79955692519e+001
