<Qucs Dataset 0.0.18>
<indep frequency 300>
  +1.00000000000e+006
  +2.00000000000e+006
  +3.00000000000e+006
  +4.00000000000e+006
  +5.00000000000e+006
  +6.00000000000e+006
  +7.00000000000e+006
  +8.00000000000e+006
  +9.00000000000e+006
  +1.00000000000e+007
  +1.10000000000e+007
  +1.20000000000e+007
  +1.30000000000e+007
  +1.40000000000e+007
  +1.50000000000e+007
  +1.60000000000e+007
  +1.70000000000e+007
  +1.80000000000e+007
  +1.90000000000e+007
  +2.00000000000e+007
  +2.10000000000e+007
  +2.20000000000e+007
  +2.30000000000e+007
  +2.40000000000e+007
  +2.50000000000e+007
  +2.60000000000e+007
  +2.70000000000e+007
  +2.80000000000e+007
  +2.90000000000e+007
  +3.00000000000e+007
  +3.10000000000e+007
  +3.20000000000e+007
  +3.30000000000e+007
  +3.40000000000e+007
  +3.50000000000e+007
  +3.60000000000e+007
  +3.70000000000e+007
  +3.80000000000e+007
  +3.90000000000e+007
  +4.00000000000e+007
  +4.10000000000e+007
  +4.20000000000e+007
  +4.30000000000e+007
  +4.40000000000e+007
  +4.50000000000e+007
  +4.60000000000e+007
  +4.70000000000e+007
  +4.80000000000e+007
  +4.90000000000e+007
  +5.00000000000e+007
  +5.10000000000e+007
  +5.20000000000e+007
  +5.30000000000e+007
  +5.40000000000e+007
  +5.50000000000e+007
  +5.60000000000e+007
  +5.70000000000e+007
  +5.80000000000e+007
  +5.90000000000e+007
  +6.00000000000e+007
  +6.10000000000e+007
  +6.20000000000e+007
  +6.30000000000e+007
  +6.40000000000e+007
  +6.50000000000e+007
  +6.60000000000e+007
  +6.70000000000e+007
  +6.80000000000e+007
  +6.90000000000e+007
  +7.00000000000e+007
  +7.10000000000e+007
  +7.20000000000e+007
  +7.30000000000e+007
  +7.40000000000e+007
  +7.50000000000e+007
  +7.60000000000e+007
  +7.70000000000e+007
  +7.80000000000e+007
  +7.90000000000e+007
  +8.00000000000e+007
  +8.10000000000e+007
  +8.20000000000e+007
  +8.30000000000e+007
  +8.40000000000e+007
  +8.50000000000e+007
  +8.60000000000e+007
  +8.70000000000e+007
  +8.80000000000e+007
  +8.90000000000e+007
  +9.00000000000e+007
  +9.10000000000e+007
  +9.20000000000e+007
  +9.30000000000e+007
  +9.40000000000e+007
  +9.50000000000e+007
  +9.60000000000e+007
  +9.70000000000e+007
  +9.80000000000e+007
  +9.90000000000e+007
  +1.00000000000e+008
  +1.01000000000e+008
  +1.02000000000e+008
  +1.03000000000e+008
  +1.04000000000e+008
  +1.05000000000e+008
  +1.06000000000e+008
  +1.07000000000e+008
  +1.08000000000e+008
  +1.09000000000e+008
  +1.10000000000e+008
  +1.11000000000e+008
  +1.12000000000e+008
  +1.13000000000e+008
  +1.14000000000e+008
  +1.15000000000e+008
  +1.16000000000e+008
  +1.17000000000e+008
  +1.18000000000e+008
  +1.19000000000e+008
  +1.20000000000e+008
  +1.21000000000e+008
  +1.22000000000e+008
  +1.23000000000e+008
  +1.24000000000e+008
  +1.25000000000e+008
  +1.26000000000e+008
  +1.27000000000e+008
  +1.28000000000e+008
  +1.29000000000e+008
  +1.30000000000e+008
  +1.31000000000e+008
  +1.32000000000e+008
  +1.33000000000e+008
  +1.34000000000e+008
  +1.35000000000e+008
  +1.36000000000e+008
  +1.37000000000e+008
  +1.38000000000e+008
  +1.39000000000e+008
  +1.40000000000e+008
  +1.41000000000e+008
  +1.42000000000e+008
  +1.43000000000e+008
  +1.44000000000e+008
  +1.45000000000e+008
  +1.46000000000e+008
  +1.47000000000e+008
  +1.48000000000e+008
  +1.49000000000e+008
  +1.50000000000e+008
  +1.51000000000e+008
  +1.52000000000e+008
  +1.53000000000e+008
  +1.54000000000e+008
  +1.55000000000e+008
  +1.56000000000e+008
  +1.57000000000e+008
  +1.58000000000e+008
  +1.59000000000e+008
  +1.60000000000e+008
  +1.61000000000e+008
  +1.62000000000e+008
  +1.63000000000e+008
  +1.64000000000e+008
  +1.65000000000e+008
  +1.66000000000e+008
  +1.67000000000e+008
  +1.68000000000e+008
  +1.69000000000e+008
  +1.70000000000e+008
  +1.71000000000e+008
  +1.72000000000e+008
  +1.73000000000e+008
  +1.74000000000e+008
  +1.75000000000e+008
  +1.76000000000e+008
  +1.77000000000e+008
  +1.78000000000e+008
  +1.79000000000e+008
  +1.80000000000e+008
  +1.81000000000e+008
  +1.82000000000e+008
  +1.83000000000e+008
  +1.84000000000e+008
  +1.85000000000e+008
  +1.86000000000e+008
  +1.87000000000e+008
  +1.88000000000e+008
  +1.89000000000e+008
  +1.90000000000e+008
  +1.91000000000e+008
  +1.92000000000e+008
  +1.93000000000e+008
  +1.94000000000e+008
  +1.95000000000e+008
  +1.96000000000e+008
  +1.97000000000e+008
  +1.98000000000e+008
  +1.99000000000e+008
  +2.00000000000e+008
  +2.01000000000e+008
  +2.02000000000e+008
  +2.03000000000e+008
  +2.04000000000e+008
  +2.05000000000e+008
  +2.06000000000e+008
  +2.07000000000e+008
  +2.08000000000e+008
  +2.09000000000e+008
  +2.10000000000e+008
  +2.11000000000e+008
  +2.12000000000e+008
  +2.13000000000e+008
  +2.14000000000e+008
  +2.15000000000e+008
  +2.16000000000e+008
  +2.17000000000e+008
  +2.18000000000e+008
  +2.19000000000e+008
  +2.20000000000e+008
  +2.21000000000e+008
  +2.22000000000e+008
  +2.23000000000e+008
  +2.24000000000e+008
  +2.25000000000e+008
  +2.26000000000e+008
  +2.27000000000e+008
  +2.28000000000e+008
  +2.29000000000e+008
  +2.30000000000e+008
  +2.31000000000e+008
  +2.32000000000e+008
  +2.33000000000e+008
  +2.34000000000e+008
  +2.35000000000e+008
  +2.36000000000e+008
  +2.37000000000e+008
  +2.38000000000e+008
  +2.39000000000e+008
  +2.40000000000e+008
  +2.41000000000e+008
  +2.42000000000e+008
  +2.43000000000e+008
  +2.44000000000e+008
  +2.45000000000e+008
  +2.46000000000e+008
  +2.47000000000e+008
  +2.48000000000e+008
  +2.49000000000e+008
  +2.50000000000e+008
  +2.51000000000e+008
  +2.52000000000e+008
  +2.53000000000e+008
  +2.54000000000e+008
  +2.55000000000e+008
  +2.56000000000e+008
  +2.57000000000e+008
  +2.58000000000e+008
  +2.59000000000e+008
  +2.60000000000e+008
  +2.61000000000e+008
  +2.62000000000e+008
  +2.63000000000e+008
  +2.64000000000e+008
  +2.65000000000e+008
  +2.66000000000e+008
  +2.67000000000e+008
  +2.68000000000e+008
  +2.69000000000e+008
  +2.70000000000e+008
  +2.71000000000e+008
  +2.72000000000e+008
  +2.73000000000e+008
  +2.74000000000e+008
  +2.75000000000e+008
  +2.76000000000e+008
  +2.77000000000e+008
  +2.78000000000e+008
  +2.79000000000e+008
  +2.80000000000e+008
  +2.81000000000e+008
  +2.82000000000e+008
  +2.83000000000e+008
  +2.84000000000e+008
  +2.85000000000e+008
  +2.86000000000e+008
  +2.87000000000e+008
  +2.88000000000e+008
  +2.89000000000e+008
  +2.90000000000e+008
  +2.91000000000e+008
  +2.92000000000e+008
  +2.93000000000e+008
  +2.94000000000e+008
  +2.95000000000e+008
  +2.96000000000e+008
  +2.97000000000e+008
  +2.98000000000e+008
  +2.99000000000e+008
  +3.00000000000e+008
</indep>
<dep phaseS21 frequency>
  -4.55282467478e+000
  -9.10683475068e+000
  -1.36634722595e+001
  -1.82241547565e+001
  -2.27903109002e+001
  -2.73633925638e+001
  -3.19448840270e+001
  -3.65363104664e+001
  -4.11392463583e+001
  -4.57553240430e+001
  -5.03862425857e+001
  -5.50337770185e+001
  -5.96997880268e+001
  -6.43862321245e+001
  -6.90951723469e+001
  -7.38287894732e+001
  -7.85893937645e+001
  -8.33794371760e+001
  -8.82015259561e+001
  -9.30584334955e+001
  -9.79531132098e+001
  -1.02888711148e+002
  -1.07868577885e+002
  -1.12896279104e+002
  -1.17975604035e+002
  -1.23110570678e+002
  -1.28305426360e+002
  -1.33564641746e+002
  -1.38892895895e+002
  -1.44295049258e+002
  -1.49776100708e+002
  -1.55341123705e+002
  -1.60995175494e+002
  -1.66743171811e+002
  -1.72589717735e+002
  -1.78538882930e+002
  +1.75406094083e+002
  +1.69243194014e+002
  +1.62972130114e+002
  +1.56595043247e+002
  +1.50117487480e+002
  +1.43549936677e+002
  +1.36910344993e+002
  +1.30229113197e+002
  +1.23560315411e+002
  +1.17012129208e+002
  +1.10852132609e+002
  +1.06053358531e+002
  +1.12116310414e+002
  -1.08445337803e+002
  -1.06842188527e+002
  -1.12009994481e+002
  -1.18260940887e+002
  -1.24834587882e+002
  -1.31504271010e+002
  -1.38174493075e+002
  -1.44796441494e+002
  -1.51342413409e+002
  -1.57796069400e+002
  -1.64148006911e+002
  -1.70393426003e+002
  -1.76530730820e+002
  +1.77439396915e+002
  +1.71514656018e+002
  +1.65691613269e+002
  +1.59966071950e+002
  +1.54333352143e+002
  +1.48788503108e+002
  +1.43326462475e+002
  +1.37942173581e+002
  +1.32630669965e+002
  +1.27387134274e+002
  +1.22206937423e+002
  +1.17085662711e+002
  +1.12019118606e+002
  +1.07003343145e+002
  +1.02034602250e+002
  +9.71093837293e+001
  +9.22243883238e+001
  +8.73765188167e+001
  +8.25628679843e+001
  +7.77807059428e+001
  +7.30274673025e+001
  +6.83007384160e+001
  +6.35982449172e+001
  +5.89178396793e+001
  +5.42574912682e+001
  +4.96152729301e+001
  +4.49893521246e+001
  +4.03779805932e+001
  +3.57794849412e+001
  +3.11922576980e+001
  +2.66147488179e+001
  +2.20454575753e+001
  +1.74829248076e+001
  +1.29257254592e+001
  +8.37246137401e+000
  +3.82175428977e+000
  -7.27761016132e-001
  -5.27744347894e+000
  -9.82865244501e+000
  -1.43827543653e+001
  -1.89411295316e+001
  -2.35051789039e+001
  -2.80763310755e+001
  -3.26560494221e+001
  -3.72458394827e+001
  -4.18472566133e+001
  -4.64619139586e+001
  -5.10914907784e+001
  -5.57377411633e+001
  -6.04025031663e+001
  -6.50877083653e+001
  -6.97953918610e+001
  -7.45277026893e+001
  -7.92869146043e+001
  -8.40754371497e+001
  -8.88958268860e+001
  -9.37507985748e+001
  -9.86432360363e+001
  -1.03576202275e+002
  -1.08552948325e+002
  -1.13576920062e+002
  -1.18651761977e+002
  -1.23781316582e+002
  -1.28969617689e+002
  -1.34220875266e+002
  -1.39539448892e+002
  -1.44929805946e+002
  -1.50396459557e+002
  -1.55943879886e+002
  -1.61576370416e+002
  -1.67297898333e+002
  -1.73111864379e+002
  -1.79020791914e+002
  +1.74974094380e+002
  +1.68873446207e+002
  +1.62680603160e+002
  +1.56402778660e+002
  +1.50052896580e+002
  +1.43652664254e+002
  +1.37238230109e+002
  +1.30871846916e+002
  +1.24669387793e+002
  +1.18877473694e+002
  +1.14150517926e+002
  +1.13072705425e+002
  +1.42352346901e+002
  -1.18517108264e+002
  -1.12917990678e+002
  -1.16380818991e+002
  -1.21750477463e+002
  -1.27780850544e+002
  -1.34076949334e+002
  -1.40471007180e+002
  -1.46878323238e+002
  -1.53251431037e+002
  -1.59562218841e+002
  -1.65793814951e+002
  -1.71936422215e+002
  -1.77984944758e+002
  +1.76062486606e+002
  +1.70205494786e+002
  +1.64442140767e+002
  +1.58769416670e+002
  +1.53183607372e+002
  +1.47680557695e+002
  +1.42255869666e+002
  +1.36905047107e+002
  +1.31623600191e+002
  +1.26407119519e+002
  +1.21251327014e+002
  +1.16152109297e+002
  +1.11105537923e+002
  +1.06107879844e+002
  +1.01155600729e+002
  +9.62453631304e+001
  +9.13740210120e+001
  +8.65386118145e+001
  +8.17363468987e+001
  +7.69646010207e+001
  +7.22209013041e+001
  +6.75029160465e+001
  +6.28084435983e+001
  +5.81354014764e+001
  +5.34818158150e+001
  +4.88458112184e+001
  +4.42256010444e+001
  +3.96194781275e+001
  +3.50258059311e+001
  +3.04430101086e+001
  +2.58695704433e+001
  +2.13040131324e+001
  +1.67449033745e+001
  +1.21908382205e+001
  +7.64043964318e+000
  +3.09234778213e+000
  -1.45478568050e+000
  -6.00230405852e+000
  -1.05515521586e+001
  -1.51038827803e+001
  -1.96606632623e+001
  -2.42232821199e+001
  -2.87931558147e+001
  -3.33717356997e+001
  -3.79605151795e+001
  -4.25610371232e+001
  -4.71749015658e+001
  -5.18037737272e+001
  -5.64493923736e+001
  -6.11135785338e+001
  -6.57982445736e+001
  -7.05054036097e+001
  -7.52371792246e+001
  -7.99958154068e+001
  -8.47836866016e+001
  -8.96033076949e+001
  -9.44573436787e+001
  -9.93486186433e+001
  -1.04280123609e+002
  -1.09255022532e+002
  -1.14276655602e+002
  -1.19348538634e+002
  -1.24474357001e+002
  -1.29657952033e+002
  -1.34903297189e+002
  -1.40214460472e+002
  -1.45595548464e+002
  -1.51050625974e+002
  -1.56583603346e+002
  -1.62198080875e+002
  -1.67897136044e+002
  -1.73683033614e+002
  -1.79556829662e+002
  +1.74482174610e+002
  +1.68437200904e+002
  +1.62315107700e+002
  +1.56128079757e+002
  +1.49896349408e+002
  +1.43652923243e+002
  +1.37452570247e+002
  +1.31390851057e+002
  +1.25650066135e+002
  +1.20631182860e+002
  +1.17442055893e+002
  +1.20673129338e+002
  +1.68522509353e+002
  -1.23769708545e+002
  -1.17426622712e+002
  -1.19941641972e+002
  -1.24722758190e+002
  -1.30359292898e+002
  -1.36371233645e+002
  -1.42548323473e+002
  -1.48782961613e+002
  -1.55014406107e+002
  -1.61206352837e+002
  -1.67336594244e+002
  -1.73391688391e+002
  -1.79363941676e+002
  +1.74750437831e+002
  +1.68952543983e+002
  +1.63241595277e+002
  +1.57615516333e+002
  +1.52071357740e+002
  +1.46605602713e+002
  +1.41214391946e+002
  +1.35893688064e+002
  +1.30639394903e+002
  +1.25447442792e+002
  +1.20313848209e+002
  +1.15234754125e+002
  +1.10206455904e+002
  +1.05225416431e+002
  +1.00288273309e+002
  +9.53918402907e+001
  +9.05331045779e+001
  +8.57092212325e+001
  +8.09175056383e+001
  +7.61554247047e+001
  +7.14205873281e+001
  +6.67107344853e+001
  +6.20237292259e+001
  +5.73575467515e+001
  +5.27102647070e+001
  +4.80800537647e+001
  +4.34651685472e+001
  +3.88639389090e+001
  +3.42747615800e+001
  +2.96960921583e+001
  +2.51264374317e+001
  +2.05643479999e+001
  +1.60084111637e+001
  +1.14572440465e+001
  +6.90948690797e+000
  +2.36379661206e+000
  -2.18115979179e+000
  -6.72671141511e+000
  -1.12741898449e+001
  -1.58249354669e+001
</dep>
<dep phaseS11 frequency>
  -9.53979214643e+001
  -9.97224646187e+001
  -1.04178414216e+002
  -1.08679984338e+002
  -1.13206663452e+002
  -1.17751434880e+002
  -1.22311732221e+002
  -1.26886869932e+002
  -1.31477103057e+002
  -1.36083224425e+002
  -1.40706373317e+002
  -1.45347938527e+002
  -1.50009507880e+002
  -1.54692842472e+002
  -1.59399865022e+002
  -1.64132656750e+002
  -1.68893459723e+002
  -1.73684682854e+002
  -1.78508910426e+002
  +1.76631087612e+002
  +1.71732344198e+002
  +1.66791683071e+002
  +1.61805706619e+002
  +1.56770784297e+002
  +1.51683042397e+002
  +1.46538356180e+002
  +1.41332345629e+002
  +1.36060376447e+002
  +1.30717568330e+002
  +1.25298813062e+002
  +1.19798805522e+002
  +1.14212091309e+002
  +1.08533135297e+002
  +1.02756415946e+002
  +9.68765504687e+001
  +9.08884558955e+001
  +8.47875502542e+001
  +7.85699963996e+001
  +7.22329879526e+001
  +6.57750721765e+001
  +5.91964982249e+001
  +5.24995712725e+001
  +4.56889842934e+001
  +3.87720911041e+001
  +3.17590788164e+001
  +2.46629975505e+001
  +1.74996123903e+001
  +1.02870582294e+001
  +3.04530135469e+000
  -4.20456117501e+000
  -1.14411076676e+001
  -1.86434289037e+001
  -2.57919162467e+001
  -3.28689293146e+001
  -3.98592919117e+001
  -4.67505914592e+001
  -5.35332838950e+001
  -6.02006277091e+001
  -6.67484844968e+001
  -7.31750286900e+001
  -7.94804074299e+001
  -8.56663852458e+001
  -9.17359997548e+001
  -9.76932459428e+001
  -1.03542798963e+002
  -1.09289779394e+002
  -1.14939560640e+002
  -1.20497615412e+002
  -1.25969396773e+002
  -1.31360248592e+002
  -1.36675340270e+002
  -1.41919620925e+002
  -1.47097788741e+002
  -1.52214271764e+002
  -1.57273216971e+002
  -1.62278484904e+002
  -1.67233647565e+002
  -1.72141987483e+002
  -1.77006496019e+002
  +1.78170131128e+002
  +1.73385503504e+002
  +1.68637553507e+002
  +1.63924566022e+002
  +1.59245225967e+002
  +1.54598692833e+002
  +1.49984716765e+002
  +1.45403820457e+002
  +1.40857588965e+002
  +1.36349143668e+002
  +1.31883945508e+002
  +1.27471220438e+002
  +1.23126641873e+002
  +1.18877771891e+002
  +1.14776234850e+002
  +1.10928824516e+002
  +1.07593769825e+002
  +1.05585364170e+002
  +1.09396871253e+002
  -1.46566677744e+002
  -1.06854940751e+002
  -1.06165161856e+002
  -1.08769522084e+002
  -1.12315953504e+002
  -1.16263180604e+002
  -1.20420890879e+002
  -1.24705647940e+002
  -1.29075611152e+002
  -1.33507908091e+002
  -1.37989348419e+002
  -1.42512127497e+002
  -1.47071652072e+002
  -1.51665361012e+002
  -1.56292049969e+002
  -1.60951467776e+002
  -1.65644067219e+002
  -1.70370847466e+002
  -1.75133253034e+002
  -1.79933108750e+002
  +1.75227421748e+002
  +1.70345861853e+002
  +1.65419437358e+002
  +1.60445084971e+002
  +1.55419456677e+002
  +1.50338922142e+002
  +1.45199571170e+002
  +1.39997218184e+002
  +1.34727410893e+002
  +1.29385445556e+002
  +1.23966391665e+002
  +1.18465129344e+002
  +1.12876403272e+002
  +1.07194897436e+002
  +1.01415335442e+002
  +9.55326112586e+001
  +8.95419549646e+001
  +8.34391371646e+001
  +7.72207137424e+001
  +7.08843094258e+001
  +6.44289338688e+001
  +5.78553176186e+001
  +5.11662477027e+001
  +4.43668744499e+001
  +3.74649540021e+001
  +3.04709867910e+001
  +2.33982133413e+001
  +1.62624370094e+001
  +9.08165934913e+000
  +1.87553634581e+000
  -5.33531084805e+000
  -1.25300741341e+001
  -1.96885542031e+001
  -2.67918993297e+001
  -3.38232224648e+001
  -4.07680516755e+001
  -4.76145939372e+001
  -5.43538167334e+001
  -6.09793713157e+001
  -6.74873933960e+001
  -7.38762212740e+001
  -8.01460693947e+001
  -8.62986892724e+001
  -9.23370418297e+001
  -9.82649971964e+001
  -1.04087071009e+002
  -1.09808200743e+002
  -1.15433561690e+002
  -1.20968419692e+002
  -1.26418016336e+002
  -1.31787481776e+002
  -1.37081770301e+002
  -1.42305614052e+002
  -1.47463490758e+002
  -1.52559601855e+002
  -1.57597857794e+002
  -1.62581867745e+002
  -1.67514931170e+002
  -1.72400028809e+002
  -1.77239810603e+002
  +1.77963422321e+002
  +1.73207745130e+002
  +1.68491651013e+002
  +1.63814113985e+002
  +1.59174683024e+002
  +1.54573623614e+002
  +1.50012132656e+002
  +1.45492670409e+002
  +1.41019485594e+002
  +1.36599472494e+002
  +1.32243626268e+002
  +1.27969638490e+002
  +1.23806819777e+002
  +1.19806193039e+002
  +1.16063401883e+002
  +1.12778393344e+002
  +1.10445184632e+002
  +1.10681822598e+002
  +1.22927180363e+002
  -1.42192725838e+002
  -1.12596315640e+002
  -1.10233435709e+002
  -1.11953688395e+002
  -1.14982050618e+002
  -1.18593065948e+002
  -1.22516493997e+002
  -1.26629549472e+002
  -1.30868938934e+002
  -1.35199142795e+002
  -1.39599047425e+002
  -1.44055638646e+002
  -1.48560761141e+002
  -1.53109338223e+002
  -1.57698340380e+002
  -1.62326161511e+002
  -1.66992228600e+002
  -1.71696750822e+002
  -1.76440555053e+002
  +1.78775023410e+002
  +1.73948213929e+002
  +1.69076859422e+002
  +1.64158448958e+002
  +1.59190139458e+002
  +1.54168770432e+002
  +1.49090874819e+002
  +1.43952688530e+002
  +1.38750161157e+002
  +1.33478970310e+002
  +1.28134542276e+002
  +1.22712081997e+002
  +1.17206615796e+002
  +1.11613050692e+002
  +1.05926254625e+002
  +1.00141162166e+002
  +9.42529103388e+001
  +8.82570087309e+001
  +8.21495469565e+001
  +7.59274403629e+001
  +6.95887115017e+001
  +6.31328000219e+001
  +5.65608873508e+001
  +4.98762151761e+001
  +4.30843692082e+001
  +3.61934934534e+001
  +2.92143972319e+001
  +2.21605195060e+001
  +1.50477243284e+001
  +7.89391765314e+000
  +7.18497703447e-001
  -6.45832515194e+000
  -1.36162825660e+001
  -2.07358076852e+001
  -2.77987302890e+001
  -3.47888486878e+001
  -4.16923390350e+001
  -4.84979863135e+001
  -5.51972437609e+001
  -6.17841449080e+001
  -6.82551027483e+001
  -7.46086338395e+001
  -8.08450428047e+001
  -8.69660968075e+001
  -9.29747121199e+001
  -9.88746674538e+001
  -1.04670352236e+002
  -1.10366552934e+002
  -1.15968276913e+002
  -1.21480611029e+002
  -1.26908610835e+002
  -1.32257215795e+002
  -1.37531185826e+002
  -1.42735054772e+002
  -1.47873096786e+002
  -1.52949302038e+002
  -1.57967358548e+002
  -1.62930637223e+002
  -1.67842177346e+002
  -1.72704669708e+002
  -1.77520434313e+002
  +1.77708611059e+002
  +1.72980996224e+002
  +1.68295764617e+002
  +1.63652569712e+002
  +1.59051816717e+002
  +1.54494872942e+002
  +1.49984385001e+002
  +1.45524767250e+002
  +1.41122974496e+002
  +1.36789766299e+002
  +1.32541863244e+002
  +1.28405817093e+002
  +1.24425411974e+002
  +1.20677001496e+002
  +1.17304793497e+002
  +1.14614398617e+002
  +1.13377116365e+002
  +1.16196295452e+002
  +1.38044910866e+002
  -1.40234426683e+002
  -1.16639648121e+002
  -1.13535093708e+002
  -1.14686015398e+002
</dep>
<dep dBS21 frequency>
  -1.12727935893e-002
  -1.91980450842e-002
