<Qucs Dataset 0.0.18>
<indep frequency 300>
  +1.00000000000e+006
  +2.00000000000e+006
  +3.00000000000e+006
  +4.00000000000e+006
  +5.00000000000e+006
  +6.00000000000e+006
  +7.00000000000e+006
  +8.00000000000e+006
  +9.00000000000e+006
  +1.00000000000e+007
  +1.10000000000e+007
  +1.20000000000e+007
  +1.30000000000e+007
  +1.40000000000e+007
  +1.50000000000e+007
  +1.60000000000e+007
  +1.70000000000e+007
  +1.80000000000e+007
  +1.90000000000e+007
  +2.00000000000e+007
  +2.10000000000e+007
  +2.20000000000e+007
  +2.30000000000e+007
  +2.40000000000e+007
  +2.50000000000e+007
  +2.60000000000e+007
  +2.70000000000e+007
  +2.80000000000e+007
  +2.90000000000e+007
  +3.00000000000e+007
  +3.10000000000e+007
  +3.20000000000e+007
  +3.30000000000e+007
  +3.40000000000e+007
  +3.50000000000e+007
  +3.60000000000e+007
  +3.70000000000e+007
  +3.80000000000e+007
  +3.90000000000e+007
  +4.00000000000e+007
  +4.10000000000e+007
  +4.20000000000e+007
  +4.30000000000e+007
  +4.40000000000e+007
  +4.50000000000e+007
  +4.60000000000e+007
  +4.70000000000e+007
  +4.80000000000e+007
  +4.90000000000e+007
  +5.00000000000e+007
  +5.10000000000e+007
  +5.20000000000e+007
  +5.30000000000e+007
  +5.40000000000e+007
  +5.50000000000e+007
  +5.60000000000e+007
  +5.70000000000e+007
  +5.80000000000e+007
  +5.90000000000e+007
  +6.00000000000e+007
  +6.10000000000e+007
  +6.20000000000e+007
  +6.30000000000e+007
  +6.40000000000e+007
  +6.50000000000e+007
  +6.60000000000e+007
  +6.70000000000e+007
  +6.80000000000e+007
  +6.90000000000e+007
  +7.00000000000e+007
  +7.10000000000e+007
  +7.20000000000e+007
  +7.30000000000e+007
  +7.40000000000e+007
  +7.50000000000e+007
  +7.60000000000e+007
  +7.70000000000e+007
  +7.80000000000e+007
  +7.90000000000e+007
  +8.00000000000e+007
  +8.10000000000e+007
  +8.20000000000e+007
  +8.30000000000e+007
  +8.40000000000e+007
  +8.50000000000e+007
  +8.60000000000e+007
  +8.70000000000e+007
  +8.80000000000e+007
  +8.90000000000e+007
  +9.00000000000e+007
  +9.10000000000e+007
  +9.20000000000e+007
  +9.30000000000e+007
  +9.40000000000e+007
  +9.50000000000e+007
  +9.60000000000e+007
  +9.70000000000e+007
  +9.80000000000e+007
  +9.90000000000e+007
  +1.00000000000e+008
  +1.01000000000e+008
  +1.02000000000e+008
  +1.03000000000e+008
  +1.04000000000e+008
  +1.05000000000e+008
  +1.06000000000e+008
  +1.07000000000e+008
  +1.08000000000e+008
  +1.09000000000e+008
  +1.10000000000e+008
  +1.11000000000e+008
  +1.12000000000e+008
  +1.13000000000e+008
  +1.14000000000e+008
  +1.15000000000e+008
  +1.16000000000e+008
  +1.17000000000e+008
  +1.18000000000e+008
  +1.19000000000e+008
  +1.20000000000e+008
  +1.21000000000e+008
  +1.22000000000e+008
  +1.23000000000e+008
  +1.24000000000e+008
  +1.25000000000e+008
  +1.26000000000e+008
  +1.27000000000e+008
  +1.28000000000e+008
  +1.29000000000e+008
  +1.30000000000e+008
  +1.31000000000e+008
  +1.32000000000e+008
  +1.33000000000e+008
  +1.34000000000e+008
  +1.35000000000e+008
  +1.36000000000e+008
  +1.37000000000e+008
  +1.38000000000e+008
  +1.39000000000e+008
  +1.40000000000e+008
  +1.41000000000e+008
  +1.42000000000e+008
  +1.43000000000e+008
  +1.44000000000e+008
  +1.45000000000e+008
  +1.46000000000e+008
  +1.47000000000e+008
  +1.48000000000e+008
  +1.49000000000e+008
  +1.50000000000e+008
  +1.51000000000e+008
  +1.52000000000e+008
  +1.53000000000e+008
  +1.54000000000e+008
  +1.55000000000e+008
  +1.56000000000e+008
  +1.57000000000e+008
  +1.58000000000e+008
  +1.59000000000e+008
  +1.60000000000e+008
  +1.61000000000e+008
  +1.62000000000e+008
  +1.63000000000e+008
  +1.64000000000e+008
  +1.65000000000e+008
  +1.66000000000e+008
  +1.67000000000e+008
  +1.68000000000e+008
  +1.69000000000e+008
  +1.70000000000e+008
  +1.71000000000e+008
  +1.72000000000e+008
  +1.73000000000e+008
  +1.74000000000e+008
  +1.75000000000e+008
  +1.76000000000e+008
  +1.77000000000e+008
  +1.78000000000e+008
  +1.79000000000e+008
  +1.80000000000e+008
  +1.81000000000e+008
  +1.82000000000e+008
  +1.83000000000e+008
  +1.84000000000e+008
  +1.85000000000e+008
  +1.86000000000e+008
  +1.87000000000e+008
  +1.88000000000e+008
  +1.89000000000e+008
  +1.90000000000e+008
  +1.91000000000e+008
  +1.92000000000e+008
  +1.93000000000e+008
  +1.94000000000e+008
  +1.95000000000e+008
  +1.96000000000e+008
  +1.97000000000e+008
  +1.98000000000e+008
  +1.99000000000e+008
  +2.00000000000e+008
  +2.01000000000e+008
  +2.02000000000e+008
  +2.03000000000e+008
  +2.04000000000e+008
  +2.05000000000e+008
  +2.06000000000e+008
  +2.07000000000e+008
  +2.08000000000e+008
  +2.09000000000e+008
  +2.10000000000e+008
  +2.11000000000e+008
  +2.12000000000e+008
  +2.13000000000e+008
  +2.14000000000e+008
  +2.15000000000e+008
  +2.16000000000e+008
  +2.17000000000e+008
  +2.18000000000e+008
  +2.19000000000e+008
  +2.20000000000e+008
  +2.21000000000e+008
  +2.22000000000e+008
  +2.23000000000e+008
  +2.24000000000e+008
  +2.25000000000e+008
  +2.26000000000e+008
  +2.27000000000e+008
  +2.28000000000e+008
  +2.29000000000e+008
  +2.30000000000e+008
  +2.31000000000e+008
  +2.32000000000e+008
  +2.33000000000e+008
  +2.34000000000e+008
  +2.35000000000e+008
  +2.36000000000e+008
  +2.37000000000e+008
  +2.38000000000e+008
  +2.39000000000e+008
  +2.40000000000e+008
  +2.41000000000e+008
  +2.42000000000e+008
  +2.43000000000e+008
  +2.44000000000e+008
  +2.45000000000e+008
  +2.46000000000e+008
  +2.47000000000e+008
  +2.48000000000e+008
  +2.49000000000e+008
  +2.50000000000e+008
  +2.51000000000e+008
  +2.52000000000e+008
  +2.53000000000e+008
  +2.54000000000e+008
  +2.55000000000e+008
  +2.56000000000e+008
  +2.57000000000e+008
  +2.58000000000e+008
  +2.59000000000e+008
  +2.60000000000e+008
  +2.61000000000e+008
  +2.62000000000e+008
  +2.63000000000e+008
  +2.64000000000e+008
  +2.65000000000e+008
  +2.66000000000e+008
  +2.67000000000e+008
  +2.68000000000e+008
  +2.69000000000e+008
  +2.70000000000e+008
  +2.71000000000e+008
  +2.72000000000e+008
  +2.73000000000e+008
  +2.74000000000e+008
  +2.75000000000e+008
  +2.76000000000e+008
  +2.77000000000e+008
  +2.78000000000e+008
  +2.79000000000e+008
  +2.80000000000e+008
  +2.81000000000e+008
  +2.82000000000e+008
  +2.83000000000e+008
  +2.84000000000e+008
  +2.85000000000e+008
  +2.86000000000e+008
  +2.87000000000e+008
  +2.88000000000e+008
  +2.89000000000e+008
  +2.90000000000e+008
  +2.91000000000e+008
  +2.92000000000e+008
  +2.93000000000e+008
  +2.94000000000e+008
  +2.95000000000e+008
  +2.96000000000e+008
  +2.97000000000e+008
  +2.98000000000e+008
  +2.99000000000e+008
  +3.00000000000e+008
</indep>
<dep phaseS21 frequency>
  +7.82691011778e+001
  +6.77919690216e+001
  +5.75046485631e+001
  +4.75942168927e+001
  +3.81374728822e+001
  +2.91581628517e+001
  +2.06464096553e+001
  +1.25721680191e+001
  +4.89511176676e+000
  -2.42866431638e+000
  -9.44253814654e+000
  -1.61871288721e+001
  -2.26992941484e+001
  -2.90118685987e+001
  -3.51538129634e+001
  -4.11505663028e+001
  -4.70244788327e+001
  -5.27952578119e+001
  -5.84803923767e+001
  -6.40955427672e+001
  -6.96548903190e+001
  -7.51714503935e+001
  -8.06573532782e+001
  -8.61240993305e+001
  -9.15827950396e+001
  -9.70443767078e+001
  -1.02519828321e+002
  -1.08020400038e+002
  -1.13557833586e+002
  -1.19144600662e+002
  -1.24794160129e+002
  -1.30521238990e+002
  -1.36342140548e+002
  -1.42275079843e+002
  -1.48340540273e+002
  -1.54561633867e+002
  -1.60964427533e+002
  -1.67578162711e+002
  -1.74435237117e+002
  +1.78429279976e+002
  +1.70978985476e+002
  +1.63178977215e+002
  +1.55001269316e+002
  +1.46434747327e+002
  +1.37503931135e+002
  +1.28309209256e+002
  +1.19142554767e+002
  +1.11041164360e+002
  +1.13609674081e+002
  -1.10504584829e+002
  -1.12369057887e+002
  -1.20790225998e+002
  -1.29983397494e+002
  -1.39131941510e+002
  -1.47991715957e+002
  -1.56479984182e+002
  -1.64580424889e+002
  -1.72308122544e+002
  -1.79692793275e+002
  +1.73230169135e+002
  +1.66424536312e+002
  +1.59855742936e+002
  +1.53492029093e+002
  +1.47304816207e+002
  +1.41268668656e+002
  +1.35361047964e+002
  +1.29561977617e+002
  +1.23853683112e+002
  +1.18220240303e+002
  +1.12647246964e+002
  +1.07121522298e+002
  +1.01630833634e+002
  +9.61636466990e+001
  +9.07088945009e+001
  +8.52557592872e+001
  +7.97934618570e+001
  +7.43110525043e+001
  +6.87971979561e+001
  +6.32399588567e+001
  +5.76265527150e+001
  +5.19430980118e+001
  +4.61743367307e+001
  +4.03033356243e+001
  +3.43111722254e+001
  +2.81766219200e+001
  +2.18758805955e+001
  +1.53823888808e+001
  +8.66687768988e+000
  +1.69784529378e+000
  -5.55717182558e+000
  -1.31289130610e+001
  -2.10412058152e+001
  -2.93012399105e+001
  -3.78808800353e+001
  -4.66768187816e+001
  -5.54043866606e+001
  -6.31844360909e+001
  -6.54174289276e+001
  +3.24430331993e+001
  +6.60072309926e+001
  +6.07337639257e+001
  +5.24809303881e+001
  +4.36927604474e+001
  +3.49612267049e+001
  +2.64914987424e+001
  +1.83554241715e+001
  +1.05665287254e+001
  +3.11065619618e+000
  -4.03904505204e+000
  -1.09142247695e+001
  -1.75471451149e+001
  -2.39685634481e+001
  -3.02067829050e+001
  -3.62873518863e+001
  -4.22331103731e+001
  -4.80644088508e+001
  -5.37994016041e+001
  -5.94543610177e+001
  -6.50439856906e+001
  -7.05816901761e+001
  -7.60798725842e+001
  -8.15501608682e+001
  -8.70036410226e+001
  -9.24510715993e+001
  -9.79030894794e+001
  -1.03370412018e+002
  -1.08864040671e+002
  -1.14395471068e+002
  -1.19976914099e+002
  -1.25621531893e+002
  -1.31343691054e+002
  -1.37159232803e+002
  -1.43085754564e+002
  -1.49142888439e+002
  -1.55352545998e+002
  -1.61739071061e+002
  -1.68329194733e+002
  -1.75151606251e+002
  +1.77764184164e+002
  +1.70390252025e+002
  +1.62704928447e+002
  +1.54701595917e+002
  +1.46405545882e+002
  +1.37908987980e+002
  +1.29457455029e+002
  +1.21736062678e+002
  +1.17397266423e+002
  +1.43253571467e+002
  -1.21072813312e+002
  -1.18830141510e+002
  -1.25430611959e+002
  -1.33632319808e+002
  -1.42140247283e+002
  -1.50545810466e+002
  -1.58694937410e+002
  -1.66534338972e+002
  -1.74057175143e+002
  +1.78721150540e+002
  +1.71775197794e+002
  +1.65075941425e+002
  +1.58594161495e+002
  +1.52302131466e+002
  +1.46174353034e+002
  +1.40187765654e+002
  +1.34321677441e+002
  +1.28557558574e+002
  +1.22878776226e+002
  +1.17270313711e+002
  +1.11718495376e+002
  +1.06210726721e+002
  +1.00735252370e+002
  +9.52809308310e+001
  +8.98370229897e+001
  +8.43929902944e+001
  +7.89382981694e+001
  +7.34622200479e+001
  +6.79536375165e+001
  +6.24008323787e+001
  +5.67912671267e+001
  +5.11113516322e+001
  +4.53461963239e+001
  +3.94793565977e+001
  +3.34925811594e+001
  +2.73655909261e+001
  +2.10759391665e+001
  +1.45990447600e+001
  +7.90856075085e+000
  +9.77360677792e-001
  -6.22036551436e+000
  -1.37050345845e+001
  -2.14839921661e+001
  -2.95369158563e+001
  -3.77863279261e+001
  -4.60294571375e+001
  -5.37393934353e+001
  -5.92281174007e+001
  -5.29484991375e+001
  +3.58643205355e+001
  +5.94447611616e+001
  +5.59886790686e+001
  +4.87662580969e+001
  +4.06355144504e+001
  +3.23665827154e+001
  +2.42415740867e+001
  +1.63710969705e+001
  +8.79108992332e+000
  +1.50180658577e+000
  -5.51364128591e+000
  -1.22796903293e+001
  -1.88232314070e+001
  -2.51709505873e+001
  -3.13480277333e+001
  -3.73775933718e+001
  -4.32806013852e+001
  -4.90759207926e+001
  -5.47805345659e+001
  -6.04097829906e+001
  -6.59776180479e+001
  -7.14968521024e+001
  -7.69793938168e+001
  -8.24364696527e+001
  -8.78788323074e+001
  -9.33169590282e+001
  -9.87612435355e+001
  -1.04222185610e+002
  -1.09710582423e+002
  -1.15237725448e+002
  -1.20815606184e+002
  -1.26457132752e+002
  -1.32176357264e+002
  -1.37988709944e+002
  -1.43911229079e+002
  -1.49962763876e+002
  -1.56164106613e+002
  -1.62537975058e+002
  -1.69108705750e+002
  -1.75901415221e+002
  +1.77059793806e+002
  +1.69755328642e+002
  +1.62176679184e+002
  +1.54338799875e+002
  +1.46304505864e+002
  +1.38237845139e+002
  +1.30544785605e+002
  +1.24369535787e+002
  +1.24374419257e+002
  +1.68861735544e+002
  -1.26803976661e+002
  -1.23719627175e+002
  -1.29269778118e+002
  -1.36784396903e+002
  -1.44810345736e+002
  -1.52857610468e+002
  -1.60730716044e+002
  -1.68352802120e+002
  -1.75702089845e+002
  +1.77216271532e+002
  +1.70384256059e+002
  +1.63778371586e+002
  +1.57373606879e+002
  +1.51145476052e+002
  +1.45070997846e+002
  +1.39129080458e+002
  +1.33300581536e+002
  +1.27568198116e+002
  +1.21916274477e+002
  +1.16330576782e+002
  +1.10798060541e+002
  +1.05306643627e+002
  +9.98449899825e+001
  +9.44023048243e+001
  +8.89681397574e+001
  +8.35322049780e+001
  +7.80841851234e+001
  +7.26135551455e+001
  +6.71093927240e+001
  +6.15601842279e+001
  +5.59536222569e+001
  +5.02763946914e+001
  +4.45139685727e+001
  +3.86503780935e+001
  +3.26680362854e+001
  +2.65476076899e+001
  +2.02680094953e+001
  +1.38066600832e+001
  +7.14018198949e+000
  +2.45919043509e-001
  -6.89509951451e+000
  -1.42925982645e+001
  -2.19366703244e+001
  -2.97777503525e+001
  -3.76847289036e+001
  -4.53432703760e+001
  -5.19432905676e+001
  -5.48069674316e+001
  -3.88515555874e+001
  +3.69018108604e+001
  +5.46014361612e+001
  +5.20195133346e+001
  +4.55010306412e+001
</dep>
<dep phaseS11 frequency>
  +1.69115908421e+002
  +1.58412608132e+002
  +1.48029098379e+002
  +1.38065189938e+002
  +1.28575779117e+002
  +1.19576248242e+002
  +1.11052835209e+002
  +1.02973516396e+002
  +9.52969588560e+001
  +8.79788333558e+001
  +8.09757549412e+001
  +7.42474603095e+001
  +6.77578301679e+001
  +6.14752402178e+001
  +5.53725932728e+001
  +4.94272973427e+001
  +4.36214370152e+001
  +3.79424845146e+001
  +3.23852570268e+001
  +2.69569510575e+001
  +2.16909878308e+001
  +1.66922873443e+001
  +1.23420426557e+001
  +1.12136347347e+001
  +1.60500161171e+002
  +1.68677183156e+002
  +1.64984481185e+002
  +1.60174006726e+002
  +1.54996157560e+002
  +1.49624725761e+002
  +1.44113917276e+002
  +1.38479312512e+002
  +1.32720015331e+002
  +1.26826253330e+002
  +1.20782300090e+002
  +1.14567608616e+002
  +1.08157187884e+002
  +1.01521676475e+002
  +9.46273875046e+001
  +8.74365757021e+001
  +7.99082357098e+001
  +7.19998485777e+001
  +6.36706119308e+001
  +5.48867322219e+001
  +4.56291552866e+001
  +3.59034165999e+001
  +2.57499248688e+001
  +1.52512118212e+001
  +4.53160280783e+000
  -6.25391974839e+000
  -1.69405395096e+001
  -2.73778194214e+001
  -3.74489900141e+001
  -4.70798965735e+001
  -5.62375083091e+001
  -6.49217243263e+001
  -7.31549469429e+001
  -8.09725483104e+001
  -8.84155977748e+001
  -9.55259797781e+001
  -1.02343451207e+002
  -1.08904046975e+002
  -1.15239304393e+002
  -1.21375886409e+002
  -1.27335261255e+002
  -1.33133093011e+002
  -1.38777843241e+002
  -1.44267587409e+002
  -1.49582597905e+002
  -1.54666578687e+002
  -1.59371384511e+002
  -1.63246536023e+002
  -1.64238067022e+002
  -1.23344412330e+002
  -1.73398261741e+001
  -1.62402903470e+001
  -1.97158552780e+001
  -2.42741455411e+001
  -2.92832003873e+001
  -3.45496242525e+001
  -4.00013153696e+001
  -4.56116286450e+001
  -5.13749798388e+001
  -5.72974995676e+001
  -6.33930727874e+001
  -6.96815862196e+001
  -7.61881449706e+001
  -8.29426735132e+001
  -8.99795325122e+001
  -9.73368179859e+001
  -1.05054953255e+002
  -1.13174087766e+002
  -1.21729749278e+002
  -1.30746287188e+002
  -1.40228103455e+002
  -1.50149708025e+002
  -1.60447217621e+002
  -1.71015338434e+002
  +1.78286314761e+002
  +1.67616704560e+002
  +1.57130711494e+002
  +1.46957872817e+002
  +1.37189239025e+002
  +1.27874638763e+002
  +1.19028121160e+002
  +1.10637374176e+002
  +1.02673478648e+002
  +9.50989700332e+001
  +8.78736107001e+001
  +8.09580972918e+001
  +7.43162326985e+001
  +6.79161118508e+001
  +6.17307892423e+001
  +5.57388218884e+001
  +4.99250794594e+001
  +4.42823589102e+001
  +3.88148108001e+001
  +3.35455088087e+001
  +2.85344913618e+001
  +2.39276848763e+001
  +2.01200734611e+001
  +1.85314470906e+001
  +2.96118034486e+001
  +1.45906121565e+002
  +1.61156096878e+002
  +1.59996681453e+002
  +1.56311786710e+002
  +1.51757459583e+002
  +1.46774921617e+002
  +1.41524125919e+002
  +1.36070618344e+002
  +1.30440090047e+002
  +1.24638172464e+002
  +1.18658666291e+002
  +1.12487256526e+002
  +1.06103272288e+002
  +9.94805794654e+001
  +9.25881728948e+001
  +8.53908666727e+001
  +7.78504693629e+001
  +6.99278935263e+001
  +6.15867207625e+001
  +5.27987223386e+001
  +4.35515509939e+001
  +3.38580586395e+001
  +2.37653681413e+001
  +1.33603133578e+001
  +2.76727353121e+000
  -7.86385510998e+000
  -1.83776663853e+001
  -2.86350957150e+001
  -3.85299119743e+001
  -4.79956671815e+001
  -5.70035386506e+001
  -6.55545390917e+001
  -7.36699780496e+001
  -8.13828189513e+001
  -8.87310652579e+001
  -9.57532606783e+001
  -1.02485693003e+002
  -1.08960763358e+002
  -1.15206020363e+002
  -1.21243425798e+002
  -1.27088432241e+002
  -1.32748336799e+002
  -1.38218978012e+002
  -1.43477746420e+002
  -1.48467736296e+002
  -1.53057638166e+002
  -1.56921395931e+002
  -1.59063451693e+002
  -1.54709236191e+002
  -8.53092696185e+001
  -2.46924354079e+001
  -2.11420865151e+001
  -2.34519649323e+001
  -2.73791078392e+001
  -3.20022983828e+001
  -3.70144715033e+001
  -4.22909676079e+001
  -4.77777330139e+001
  -5.34535773777e+001
  -5.93151305499e+001
  -6.53701645122e+001
  -7.16344148961e+001
  -7.81299745653e+001
  -8.48843624196e+001
  -9.19297434669e+001
  -9.93018836720e+001
  -1.07038408845e+002
  -1.15175877965e+002
  -1.23745163587e+002
  -1.32764792813e+002
  -1.42232435231e+002
  -1.52115783401e+002
  -1.62345511272e+002
  -1.72814046022e+002
  +1.76616753309e+002
  +1.66099023051e+002
  +1.55777779102e+002
  +1.45772153992e+002
  +1.36164541088e+002
  +1.26999098032e+002
  +1.18287287241e+002
  +1.10016679742e+002
  +1.02159885746e+002
  +9.46819072482e+001
  +8.75454361844e+001
  +8.07143216948e+001
  +7.41556940230e+001
  +6.78412593421e+001
  +6.17482298329e+001
  +5.58603291291e+001
  +5.01693956005e+001
  +4.46784214991e+001
  +3.94077347288e+001
  +3.44084194569e+001
  +2.97943410383e+001
  +2.58302489634e+001
  +2.32334177534e+001
  +2.46646911256e+001
  +4.97097627748e+001
  +1.41567986389e+002
  +1.56187910496e+002
  +1.56222057927e+002
  +1.53209164747e+002
  +1.49062020335e+002
  +1.44344919921e+002
  +1.39275598661e+002
  +1.33949488812e+002
  +1.28409095595e+002
  +1.22670161737e+002
  +1.16732909797e+002
  +1.10587315252e+002
  +1.04215746389e+002
  +9.75944080972e+001
  +9.06943278737e+001
  +8.34823741182e+001
  +7.59227424278e+001
  +6.79793756726e+001
  +5.96198157657e+001
  +5.08209068129e+001
  +4.15764138829e+001
  +3.19058123477e+001
  +2.18622334436e+001
  +1.15362929442e+001
  +1.05236285445e+000
  -9.44414364796e+000
  -1.98060033131e+001
  -2.99040016802e+001
  -3.96410784832e+001
  -4.89576076771e+001
  -5.78286570627e+001
  -6.62564917488e+001
  -7.42617383373e+001
  -8.18754662512e+001
  -8.91331227948e+001
  -9.60703595690e+001
  -1.02720363111e+002
  -1.09112186933e+002
  -1.15269599878e+002
  -1.21209993334e+002
  -1.26942838645e+002
  -1.32466946268e+002
  -1.37765106931e+002
  -1.42792903458e+002
  -1.47453332610e+002
  -1.51531869534e+002
  -1.54497704434e+002
  -1.54697120791e+002
  -1.43992016764e+002
  -7.01852615029e+001
  -2.93515934638e+001
  -2.49835517057e+001
  -2.65969879025e+001
  -3.00903864449e+001
  -3.44313415715e+001
  -3.92514296114e+001
  -4.43934319239e+001
  -4.97849706245e+001
  -5.53939046213e+001
  -6.12099700324e+001
  -6.72363880848e+001
  -7.34857303787e+001
  -7.99777282343e+001
  -8.67379396958e+001
  -9.37966495360e+001
  -1.01187530010e+002
  -1.08945605997e+002
  -1.17104041596e+002
  -1.25689293627e+002
  -1.34714401253e+002
  -1.44170774125e+002
  -1.54019898448e+002
  -1.64187664398e+002
  -1.74564723189e+002
  +1.74984729528e+002
  +1.64606474761e+002
  +1.54436613564e+002
  +1.44585002705e+002
</dep>
<dep dBS21 frequency>
  -1.79958146552e+001
  -1.21557130563e+001
