<Qucs Dataset 0.0.18>
<indep frequency 300>
  +1.00000000000e+006
  +2.00000000000e+006
  +3.00000000000e+006
  +4.00000000000e+006
  +5.00000000000e+006
  +6.00000000000e+006
  +7.00000000000e+006
  +8.00000000000e+006
  +9.00000000000e+006
  +1.00000000000e+007
  +1.10000000000e+007
  +1.20000000000e+007
  +1.30000000000e+007
  +1.40000000000e+007
  +1.50000000000e+007
  +1.60000000000e+007
  +1.70000000000e+007
  +1.80000000000e+007
  +1.90000000000e+007
  +2.00000000000e+007
  +2.10000000000e+007
  +2.20000000000e+007
  +2.30000000000e+007
  +2.40000000000e+007
  +2.50000000000e+007
  +2.60000000000e+007
  +2.70000000000e+007
  +2.80000000000e+007
  +2.90000000000e+007
  +3.00000000000e+007
  +3.10000000000e+007
  +3.20000000000e+007
  +3.30000000000e+007
  +3.40000000000e+007
  +3.50000000000e+007
  +3.60000000000e+007
  +3.70000000000e+007
  +3.80000000000e+007
  +3.90000000000e+007
  +4.00000000000e+007
  +4.10000000000e+007
  +4.20000000000e+007
  +4.30000000000e+007
  +4.40000000000e+007
  +4.50000000000e+007
  +4.60000000000e+007
  +4.70000000000e+007
  +4.80000000000e+007
  +4.90000000000e+007
  +5.00000000000e+007
  +5.10000000000e+007
  +5.20000000000e+007
  +5.30000000000e+007
  +5.40000000000e+007
  +5.50000000000e+007
  +5.60000000000e+007
  +5.70000000000e+007
  +5.80000000000e+007
  +5.90000000000e+007
  +6.00000000000e+007
  +6.10000000000e+007
  +6.20000000000e+007
  +6.30000000000e+007
  +6.40000000000e+007
  +6.50000000000e+007
  +6.60000000000e+007
  +6.70000000000e+007
  +6.80000000000e+007
  +6.90000000000e+007
  +7.00000000000e+007
  +7.10000000000e+007
  +7.20000000000e+007
  +7.30000000000e+007
  +7.40000000000e+007
  +7.50000000000e+007
  +7.60000000000e+007
  +7.70000000000e+007
  +7.80000000000e+007
  +7.90000000000e+007
  +8.00000000000e+007
  +8.10000000000e+007
  +8.20000000000e+007
  +8.30000000000e+007
  +8.40000000000e+007
  +8.50000000000e+007
  +8.60000000000e+007
  +8.70000000000e+007
  +8.80000000000e+007
  +8.90000000000e+007
  +9.00000000000e+007
  +9.10000000000e+007
  +9.20000000000e+007
  +9.30000000000e+007
  +9.40000000000e+007
  +9.50000000000e+007
  +9.60000000000e+007
  +9.70000000000e+007
  +9.80000000000e+007
  +9.90000000000e+007
  +1.00000000000e+008
  +1.01000000000e+008
  +1.02000000000e+008
  +1.03000000000e+008
  +1.04000000000e+008
  +1.05000000000e+008
  +1.06000000000e+008
  +1.07000000000e+008
  +1.08000000000e+008
  +1.09000000000e+008
  +1.10000000000e+008
  +1.11000000000e+008
  +1.12000000000e+008
  +1.13000000000e+008
  +1.14000000000e+008
  +1.15000000000e+008
  +1.16000000000e+008
  +1.17000000000e+008
  +1.18000000000e+008
  +1.19000000000e+008
  +1.20000000000e+008
  +1.21000000000e+008
  +1.22000000000e+008
  +1.23000000000e+008
  +1.24000000000e+008
  +1.25000000000e+008
  +1.26000000000e+008
  +1.27000000000e+008
  +1.28000000000e+008
  +1.29000000000e+008
  +1.30000000000e+008
  +1.31000000000e+008
  +1.32000000000e+008
  +1.33000000000e+008
  +1.34000000000e+008
  +1.35000000000e+008
  +1.36000000000e+008
  +1.37000000000e+008
  +1.38000000000e+008
  +1.39000000000e+008
  +1.40000000000e+008
  +1.41000000000e+008
  +1.42000000000e+008
  +1.43000000000e+008
  +1.44000000000e+008
  +1.45000000000e+008
  +1.46000000000e+008
  +1.47000000000e+008
  +1.48000000000e+008
  +1.49000000000e+008
  +1.50000000000e+008
  +1.51000000000e+008
  +1.52000000000e+008
  +1.53000000000e+008
  +1.54000000000e+008
  +1.55000000000e+008
  +1.56000000000e+008
  +1.57000000000e+008
  +1.58000000000e+008
  +1.59000000000e+008
  +1.60000000000e+008
  +1.61000000000e+008
  +1.62000000000e+008
  +1.63000000000e+008
  +1.64000000000e+008
  +1.65000000000e+008
  +1.66000000000e+008
  +1.67000000000e+008
  +1.68000000000e+008
  +1.69000000000e+008
  +1.70000000000e+008
  +1.71000000000e+008
  +1.72000000000e+008
  +1.73000000000e+008
  +1.74000000000e+008
  +1.75000000000e+008
  +1.76000000000e+008
  +1.77000000000e+008
  +1.78000000000e+008
  +1.79000000000e+008
  +1.80000000000e+008
  +1.81000000000e+008
  +1.82000000000e+008
  +1.83000000000e+008
  +1.84000000000e+008
  +1.85000000000e+008
  +1.86000000000e+008
  +1.87000000000e+008
  +1.88000000000e+008
  +1.89000000000e+008
  +1.90000000000e+008
  +1.91000000000e+008
  +1.92000000000e+008
  +1.93000000000e+008
  +1.94000000000e+008
  +1.95000000000e+008
  +1.96000000000e+008
  +1.97000000000e+008
  +1.98000000000e+008
  +1.99000000000e+008
  +2.00000000000e+008
  +2.01000000000e+008
  +2.02000000000e+008
  +2.03000000000e+008
  +2.04000000000e+008
  +2.05000000000e+008
  +2.06000000000e+008
  +2.07000000000e+008
  +2.08000000000e+008
  +2.09000000000e+008
  +2.10000000000e+008
  +2.11000000000e+008
  +2.12000000000e+008
  +2.13000000000e+008
  +2.14000000000e+008
  +2.15000000000e+008
  +2.16000000000e+008
  +2.17000000000e+008
  +2.18000000000e+008
  +2.19000000000e+008
  +2.20000000000e+008
  +2.21000000000e+008
  +2.22000000000e+008
  +2.23000000000e+008
  +2.24000000000e+008
  +2.25000000000e+008
  +2.26000000000e+008
  +2.27000000000e+008
  +2.28000000000e+008
  +2.29000000000e+008
  +2.30000000000e+008
  +2.31000000000e+008
  +2.32000000000e+008
  +2.33000000000e+008
  +2.34000000000e+008
  +2.35000000000e+008
  +2.36000000000e+008
  +2.37000000000e+008
  +2.38000000000e+008
  +2.39000000000e+008
  +2.40000000000e+008
  +2.41000000000e+008
  +2.42000000000e+008
  +2.43000000000e+008
  +2.44000000000e+008
  +2.45000000000e+008
  +2.46000000000e+008
  +2.47000000000e+008
  +2.48000000000e+008
  +2.49000000000e+008
  +2.50000000000e+008
  +2.51000000000e+008
  +2.52000000000e+008
  +2.53000000000e+008
  +2.54000000000e+008
  +2.55000000000e+008
  +2.56000000000e+008
  +2.57000000000e+008
  +2.58000000000e+008
  +2.59000000000e+008
  +2.60000000000e+008
  +2.61000000000e+008
  +2.62000000000e+008
  +2.63000000000e+008
  +2.64000000000e+008
  +2.65000000000e+008
  +2.66000000000e+008
  +2.67000000000e+008
  +2.68000000000e+008
  +2.69000000000e+008
  +2.70000000000e+008
  +2.71000000000e+008
  +2.72000000000e+008
  +2.73000000000e+008
  +2.74000000000e+008
  +2.75000000000e+008
  +2.76000000000e+008
  +2.77000000000e+008
  +2.78000000000e+008
  +2.79000000000e+008
  +2.80000000000e+008
  +2.81000000000e+008
  +2.82000000000e+008
  +2.83000000000e+008
  +2.84000000000e+008
  +2.85000000000e+008
  +2.86000000000e+008
  +2.87000000000e+008
  +2.88000000000e+008
  +2.89000000000e+008
  +2.90000000000e+008
  +2.91000000000e+008
  +2.92000000000e+008
  +2.93000000000e+008
  +2.94000000000e+008
  +2.95000000000e+008
  +2.96000000000e+008
  +2.97000000000e+008
  +2.98000000000e+008
  +2.99000000000e+008
  +3.00000000000e+008
</indep>
<dep phaseS21 frequency>
  -5.46435116343e+000
  -1.09389834653e+001
  -1.64353794756e+001
  -2.19653014814e+001
  -2.75411475772e+001
  -3.31762304894e+001
  -3.88850678199e+001
  -4.46836975024e+001
  -5.05900234123e+001
  -5.66241899470e+001
  -6.28089752153e+001
  -6.91701765632e+001
  -7.57369346202e+001
  -8.25418954533e+001
  -8.96210337566e+001
  -9.70128376325e+001
  -1.04756365548e+002
  -1.12887393120e+002
  -1.21431380583e+002
  -1.30390944331e+002
  -1.39722127251e+002
  -1.49278070488e+002
  -1.58595014558e+002
  -1.64973045897e+002
  -2.10544351648e+001
  -1.81995821043e+001
  -2.69826628236e+001
  -3.65159420778e+001
  -4.59500660568e+001
  -5.50548316788e+001
  -6.37549347146e+001
  -7.20382229157e+001
  -7.99230015047e+001
  -8.74419958838e+001
  -9.46334973949e+001
  -1.01536447809e+002
  -1.08187864775e+002
  -1.14621659654e+002
  -1.20868256792e+002
  -1.26954649837e+002
  -1.32904676922e+002
  -1.38739388911e+002
  -1.44477441588e+002
  -1.50135476423e+002
  -1.55728474110e+002
  -1.61270075992e+002
  -1.66772874401e+002
  -1.72248675920e+002
  -1.77708742982e+002
  +1.76835980241e+002
  +1.71374651534e+002
  +1.65896317859e+002
  +1.60389700083e+002
  +1.54842969397e+002
  +1.49243509796e+002
  +1.43577661577e+002
  +1.37830441882e+002
  +1.31985240637e+002
  +1.26023494573e+002
  +1.19924350149e+002
  +1.13664340688e+002
  +1.07217128444e+002
  +1.00553405756e+002
  +9.36411226536e+001
  +8.64463300693e+001
  +7.89351301151e+001
  +7.10775704245e+001
  +6.28549660763e+001
  +5.42735985337e+001
  +4.53921024532e+001
  +3.63870416994e+001
  +2.77731845849e+001
  +2.17098949787e+001
  +5.73242078718e+001
  +1.58068690611e+002
  +1.54041775891e+002
  +1.45741951299e+002
  +1.36777571010e+002
  +1.27854236999e+002
  +1.19201194403e+002
  +1.10897878474e+002
  +1.02960201967e+002
  +9.53740552631e+001
  +8.81114627297e+001
  +8.11391168971e+001
  +7.44229354936e+001
  +6.79303865591e+001
  +6.16315428377e+001
  +5.54994251373e+001
  +4.95099637562e+001
  +4.36417691793e+001
  +3.78758203947e+001
  +3.21951298890e+001
  +2.65844155078e+001
  +2.10297927839e+001
  +1.55184920352e+001
  +1.00385994863e+001
  +4.57881903954e+000
  -8.71749955665e-001
  -6.32382414500e+000
  -1.17881422242e+001
  -1.72756710147e+001
  -2.27978168580e+001
  -2.83666473669e+001
  -3.39951280399e+001
  -3.96973771617e+001
  -4.54889403054e+001
  -5.13870817733e+001
  -5.74110830583e+001
  -6.35825254846e+001
  -6.99255116351e+001
  -7.64667413906e+001
  -8.32352924713e+001
  -9.02618438203e+001
  -9.75768903156e+001
  -1.05207164091e+002
  -1.13168844978e+002
  -1.21454744317e+002
  -1.30008802604e+002
  -1.38667750337e+002
  -1.46988004613e+002
  -1.53462403512e+002
  -1.47511574853e+002
  -3.64389484572e+001
  -2.63385649905e+001
  -3.24061209796e+001
  -4.06328128691e+001
  -4.92728394270e+001
  -5.78339395264e+001
  -6.61369747617e+001
  -7.41192484324e+001
  -8.17704535035e+001
  -8.91052711654e+001
  -9.61497578728e+001
  -1.02934165567e+002
  -1.09489154888e+002
  -1.15843894773e+002
  -1.22025221737e+002
  -1.28057385157e+002
  -1.33962104484e+002
  -1.39758781070e+002
  -1.45464776259e+002
  -1.51095707876e+002
  -1.56665740847e+002
  -1.62187861138e+002
  -1.67674129840e+002
  -1.73135918311e+002
  -1.78584127535e+002
  +1.75970604128e+002
  +1.70517700078e+002
  +1.65046446659e+002
  +1.59545791575e+002
  +1.54004134930e+002
  +1.48409108832e+002
  +1.42747342455e+002
  +1.37004211392e+002
  +1.31163573674e+002
  +1.25207501202e+002
  +1.19116026689e+002
  +1.12866945855e+002
  +1.06435748543e+002
  +9.97958102055e+001
  +9.29190737925e+001
  +8.57776213668e+001
  +7.83468341931e+001
  +7.06114055636e+001
  +6.25766784633e+001
  +5.42908751117e+001
  +4.58936303004e+001
  +3.77459072420e+001
  +3.09131280271e+001
  +3.02776503251e+001
  +9.45199489738e+001
  +1.50015235460e+002
  +1.48599720758e+002
  +1.41632122022e+002
  +1.33461604268e+002
  +1.25076177667e+002
  +1.16815157542e+002
  +1.08809653213e+002
  +1.01103931556e+002
  +9.37014260746e+001
  +8.65859679112e+001
  +7.97326391991e+001
  +7.31135234029e+001
  +6.67007168711e+001
  +6.04678161400e+001
  +5.43905530197e+001
  +4.84469613203e+001
  +4.26172960102e+001
  +3.68838307835e+001
  +3.12306044302e+001
  +2.56431539014e+001
  +2.01082530927e+001
  +1.46136655622e+001
  +9.14791330570e+000
  +3.70006037464e+000
  -1.74049165949e+000
  -7.18420027079e+000
  -1.26415748392e+001
  -1.81233701508e+001
  -2.36407847251e+001
  -2.92056677154e+001
  -3.48307372232e+001
  -4.05298111649e+001
  -4.63180487059e+001
  -5.22121946958e+001
  -5.82308097257e+001
  -6.43944514053e+001
  -7.07257432269e+001
  -7.72492174322e+001
  -8.39907329867e+001
  -9.09761227450e+001
  -9.82284640268e+001
  -1.05762881496e+002
  -1.13576788654e+002
  -1.21631059375e+002
  -1.29810573387e+002
  -1.37827121415e+002
  -1.44908821181e+002
  -1.48302995836e+002
  -1.28291716803e+002
  -4.15370913148e+001
  -3.19211695515e+001
  -3.66395928842e+001
  -4.40372362201e+001
  -5.21195054455e+001
  -6.02760433595e+001
  -6.82720703408e+001
  -7.60150096040e+001
  -8.34764271312e+001
  -9.06589398145e+001
  -9.75800614665e+001
  -1.04263758302e+002
  -1.10735956749e+002
  -1.17022207113e+002
  -1.23146551563e+002
  -1.29131064434e+002
  -1.34995760503e+002
  -1.40758696550e+002
  -1.46436166794e+002
  -1.52042936881e+002
  -1.57592486847e+002
  -1.63097248444e+002
  -1.68568830763e+002
  -1.74018232956e+002
  -1.79456045535e+002
  +1.75107356867e+002
  +1.69661627691e+002
  +1.64196261751e+002
  +1.58700405851e+002
  +1.53162663271e+002
  +1.47570889479e+002
  +1.41911977918e+002
  +1.36171637453e+002
  +1.30334167896e+002
  +1.24382248508e+002
  +1.18296768965e+002
  +1.12056757345e+002
  +1.05639502384e+002
  +9.90210402368e+001
  +9.21773015820e+001
  +8.50864361702e+001
  +7.77332397532e+001
  +7.01174256788e+001
  +6.22693484129e+001
  +5.42818294443e+001
  +4.63832930374e+001
  +3.91453834985e+001
  +3.42966223566e+001
  +4.00847126131e+001
  +1.08845400657e+002
  +1.44680554392e+002
  +1.44227801130e+002
  +1.38108025263e+002
  +1.30520166177e+002
  +1.22557292601e+002
  +1.14616753152e+002
  +1.06861247078e+002
  +9.93540144695e+001
  +9.21109988520e+001
  +8.51248565845e+001
  +7.83771682857e+001
  +7.18449268356e+001
  +6.55039952683e+001
  +5.93308892556e+001
  +5.33036197130e+001
  +4.74020109308e+001
  +4.16077325667e+001
  +3.59041823459e+001
  +3.02762971877e+001
  +2.47103358556e+001
  +1.91936559740e+001
  +1.37144964794e+001
  +8.26176980180e+000
  +2.82486423146e+000
  -2.60654518995e+000
  -8.04268002571e+000
  -1.34938393280e+001
  -1.89705814323e+001
</dep>
<dep phaseS11 frequency>
  -9.63111584940e+001
  -1.01559622831e+002
  -1.06959829769e+002
  -1.12436275278e+002
  -1.17979454881e+002
  -1.23594317311e+002
  -1.29291495213e+002
  -1.35085048172e+002
  -1.40991873299e+002
  -1.47031690980e+002
  -1.53227272298e+002
  -1.59604770461e+002
  -1.66194064488e+002
  -1.73029010814e+002
  +1.79852552248e+002
  +1.72409289414e+002
  +1.64597707227e+002
  +1.56374850241e+002
  +1.47702951225e+002
  +1.38556535561e+002
  +1.28931954060e+002
  +1.18858118343e+002
  +1.08405408826e+002
  +9.76881864748e+001
  +8.68567820166e+001
  +7.60785205928e+001
  +6.55129132279e+001
  +5.52895910568e+001
  +4.54959040155e+001
  +3.61758136908e+001
  +2.73369657326e+001
  +1.89612072733e+001
  +1.10148269396e+001
  +3.45665719182e+000
  -3.75635001828e+000
  -1.06657013380e+001
  -1.73094902012e+001
  -2.37215079299e+001
  -2.99308896570e+001
  -3.59619530083e+001
  -4.18339338282e+001
  -4.75602661864e+001
  -5.31467893576e+001
  -5.85874657107e+001
  -6.38537018812e+001
  -6.88642861688e+001
  -7.33802465315e+001
  -7.64587245866e+001
  -6.86306720705e+001
  +7.25853156658e+001
  +7.59461345546e+001
  +7.24839135974e+001
  +6.78552958652e+001
  +6.27909287000e+001
  +5.74893074031e+001
  +5.20194080322e+001
  +4.64049713545e+001
  +4.06496749924e+001
  +3.47463089140e+001
  +2.86805102604e+001
  +2.24323409037e+001
  +1.59769327447e+001
  +9.28475559740e+000
  +2.32184398492e+000
  -4.94971835269e+000
  -1.25707033789e+001
  -2.05825778383e+001
  -2.90237246171e+001
  -3.79235117836e+001
  -4.72939977277e+001
  -5.71199298606e+001
  -6.73491955526e+001
  -7.78875425065e+001
  -8.86018824634e+001
  -9.93343030732e+001
  -1.09924139686e+002
  -1.20230990431e+002
  -1.30150996203e+002
  -1.39622542346e+002
  -1.48622582328e+002
  -1.57157671041e+002
  -1.65253801660e+002
  -1.72947602623e+002
  +1.79720157892e+002
  +1.72708832366e+002
  +1.65980420902e+002
  +1.59500937127e+002
  +1.53241109077e+002
  +1.47176816432e+002
  +1.41289621947e+002
  +1.35567820002e+002
  +1.30008711607e+002
  +1.24623647172e+002
  +1.19449829237e+002
  +1.14581082695e+002
  +1.10263817293e+002
  +1.07301383552e+002
  +1.10176729712e+002
  -1.46715031741e+002
  -1.07933299345e+002
  -1.08185092858e+002
  -1.11752617968e+002
  -1.16294301451e+002
  -1.21280066969e+002
  -1.26531759575e+002
  -1.31979337914e+002
  -1.37595902679e+002
  -1.43375409861e+002
  -1.49323754986e+002
  -1.55454865818e+002
  -1.61788910056e+002
  -1.68351439966e+002
  -1.75172891047e+002
  +1.77711952112e+002
  +1.70264884604e+002
  +1.62446026211e+002
  +1.54216891081e+002
  +1.45545319483e+002
  +1.36412628756e+002
  +1.26822734169e+002
  +1.16811792990e+002
  +1.06455333312e+002
  +9.58687656770e+001
  +8.51981172314e+001
  +7.46014931910e+001
  +6.42265014953e+001
  +5.41912059600e+001
  +4.45741298001e+001
  +3.54141519641e+001
  +2.67173105620e+001
  +1.84663955331e+001
  +1.06301840931e+001
  +3.17076747511e+000
  -3.95134287358e+000
  -1.07739950486e+001
  -1.73315223780e+001
  -2.36536906326e+001
  -2.97650202917e+001
  -3.56840849790e+001
  -4.14223371465e+001
  -4.69817595553e+001
  -5.23499126359e+001
  -5.74888940174e+001
  -6.23083117113e+001
  -6.65884707693e+001
  -6.97034394891e+001
  -6.90989675892e+001
  -3.80978300841e+001
  +6.27616473158e+001
  +7.00652282376e+001
  +6.82509356222e+001
  +6.44433909008e+001
  +5.98595639780e+001
  +5.48668482052e+001
  +4.96069574228e+001
  +4.41398659323e+001
  +3.84892352240e+001
  +3.26597371607e+001
  +2.66445079298e+001
  +2.04286059199e+001
  +1.39907022694e+001
  +7.30399466906e+000
  +3.36889792348e-001
  -6.94613787515e+000
  -1.45831011906e+001
  -2.26119969837e+001
  -3.10667223483e+001
  -3.99709728540e+001
  -4.93300877650e+001
  -5.91217223288e+001
  -6.92876398281e+001
  -7.97302520860e+001
  -9.03175477282e+001
  -1.00897589537e+002
  -1.11319386869e+002
  -1.21453447852e+002
  -1.31205500710e+002
  -1.40520587102e+002
  -1.49379024440e+002
  -1.57787963685e+002
  -1.65772085687e+002
  -1.73365594040e+002
  +1.79393719813e+002
  +1.72468430255e+002
  +1.65823909262e+002
  +1.59429764678e+002
  +1.53260764823e+002
  +1.47297679946e+002
  +1.41528499692e+002
  +1.35950688028e+002
  +1.30575731958e+002
  +1.25438865203e+002
  +1.20621629525e+002
  +1.16311239632e+002
  +1.12990061688e+002
  +1.12265311047e+002
  +1.23565608831e+002
  -1.42492925175e+002
  -1.13838465235e+002
  -1.12430680304e+002
  -1.15129273863e+002
  -1.19169821604e+002
  -1.23838195746e+002
  -1.28876465625e+002
  -1.34175411798e+002
  -1.39686865111e+002
  -1.45392318806e+002
  -1.51289913707e+002
  -1.57388493275e+002
  -1.63704702218e+002
  -1.70261465182e+002
  -1.77087033421e+002
  +1.75785905662e+002
  +1.68321481862e+002
  +1.60482708152e+002
  +1.52234858147e+002
  +1.43550629498e+002
  +1.34417316120e+002
  +1.24845541642e+002
  +1.14877924804e+002
  +1.04594654850e+002
  +9.41122980245e+001
  +8.35734879721e+001
  +7.31287556983e+001
  +6.29157802170e+001
  +5.30428001364e+001
  +4.35806046998e+001
  +3.45633244427e+001
  +2.59951147318e+001
  +1.78590755169e+001
  +1.01257088342e+001
  +2.75961854638e+000
  -4.27577994694e+000
  -1.10152200350e+001
  -1.74897138461e+001
  -2.37253528814e+001
  -2.97423231897e+001
  -3.55536701211e+001
  -4.11631966674e+001
  -4.65614125313e+001
  -5.17171993649e+001
  -5.65593517440e+001
  -6.09310667680e+001
  -6.44582836411e+001
  -6.60615341544e+001
  -6.11801096526e+001
  -1.16466731193e+001
  +5.77475263313e+001
  +6.57480090797e+001
  +6.48304933664e+001
  +6.15570983229e+001
  +5.73099389908e+001
  +5.25419527988e+001
  +4.74377733757e+001
  +4.20805965588e+001
  +3.65075704716e+001
  +3.07316724850e+001
  +2.47514179977e+001
  +1.85555295829e+001
  +1.21253384181e+001
  +5.43616385161e+000
  -1.54165293688e+000
  -8.84158205903e+000
  -1.64991586555e+001
  -2.45491798220e+001
  -3.30213605471e+001
  -4.19341091033e+001
  -5.12865527591e+001
  -6.10498861343e+001
  -7.11604225366e+001
  -8.15177588147e+001
  -9.19910649466e+001
  -1.02433883339e+002
  -1.12703856317e+002
  -1.22681121138e+002
  -1.32279859349e+002
  -1.41451042930e+002
  -1.50178088488e+002
  -1.58468840074e+002
  -1.66346973902e+002
  -1.73844656034e+002
  +1.79002917595e+002
  +1.72161212543e+002
  +1.65598709972e+002
  +1.59288422298e+002
  +1.53209045565e+002
  +1.47346219147e+002
  +1.41694468732e+002
  +1.36260764210e+002
  +1.31071574237e+002
  +1.26187857860e+002
  +1.21740022424e+002
  +1.18021170790e+002
  +1.15791112286e+002
  +1.17642471555e+002
  +1.38538033474e+002
  -1.40689465376e+002
  -1.18047723323e+002
  -1.15910947460e+002
  -1.18054564638e+002
</dep>
<dep dBS21 frequency>
  -1.66172876190e-002
  -3.55256258073e-002
