<Qucs Dataset 0.0.18>
<indep frequency 300>
  +1.00000000000e+006
  +2.00000000000e+006
  +3.00000000000e+006
  +4.00000000000e+006
  +5.00000000000e+006
  +6.00000000000e+006
  +7.00000000000e+006
  +8.00000000000e+006
  +9.00000000000e+006
  +1.00000000000e+007
  +1.10000000000e+007
  +1.20000000000e+007
  +1.30000000000e+007
  +1.40000000000e+007
  +1.50000000000e+007
  +1.60000000000e+007
  +1.70000000000e+007
  +1.80000000000e+007
  +1.90000000000e+007
  +2.00000000000e+007
  +2.10000000000e+007
  +2.20000000000e+007
  +2.30000000000e+007
  +2.40000000000e+007
  +2.50000000000e+007
  +2.60000000000e+007
  +2.70000000000e+007
  +2.80000000000e+007
  +2.90000000000e+007
  +3.00000000000e+007
  +3.10000000000e+007
  +3.20000000000e+007
  +3.30000000000e+007
  +3.40000000000e+007
  +3.50000000000e+007
  +3.60000000000e+007
  +3.70000000000e+007
  +3.80000000000e+007
  +3.90000000000e+007
  +4.00000000000e+007
  +4.10000000000e+007
  +4.20000000000e+007
  +4.30000000000e+007
  +4.40000000000e+007
  +4.50000000000e+007
  +4.60000000000e+007
  +4.70000000000e+007
  +4.80000000000e+007
  +4.90000000000e+007
  +5.00000000000e+007
  +5.10000000000e+007
  +5.20000000000e+007
  +5.30000000000e+007
  +5.40000000000e+007
  +5.50000000000e+007
  +5.60000000000e+007
  +5.70000000000e+007
  +5.80000000000e+007
  +5.90000000000e+007
  +6.00000000000e+007
  +6.10000000000e+007
  +6.20000000000e+007
  +6.30000000000e+007
  +6.40000000000e+007
  +6.50000000000e+007
  +6.60000000000e+007
  +6.70000000000e+007
  +6.80000000000e+007
  +6.90000000000e+007
  +7.00000000000e+007
  +7.10000000000e+007
  +7.20000000000e+007
  +7.30000000000e+007
  +7.40000000000e+007
  +7.50000000000e+007
  +7.60000000000e+007
  +7.70000000000e+007
  +7.80000000000e+007
  +7.90000000000e+007
  +8.00000000000e+007
  +8.10000000000e+007
  +8.20000000000e+007
  +8.30000000000e+007
  +8.40000000000e+007
  +8.50000000000e+007
  +8.60000000000e+007
  +8.70000000000e+007
  +8.80000000000e+007
  +8.90000000000e+007
  +9.00000000000e+007
  +9.10000000000e+007
  +9.20000000000e+007
  +9.30000000000e+007
  +9.40000000000e+007
  +9.50000000000e+007
  +9.60000000000e+007
  +9.70000000000e+007
  +9.80000000000e+007
  +9.90000000000e+007
  +1.00000000000e+008
  +1.01000000000e+008
  +1.02000000000e+008
  +1.03000000000e+008
  +1.04000000000e+008
  +1.05000000000e+008
  +1.06000000000e+008
  +1.07000000000e+008
  +1.08000000000e+008
  +1.09000000000e+008
  +1.10000000000e+008
  +1.11000000000e+008
  +1.12000000000e+008
  +1.13000000000e+008
  +1.14000000000e+008
  +1.15000000000e+008
  +1.16000000000e+008
  +1.17000000000e+008
  +1.18000000000e+008
  +1.19000000000e+008
  +1.20000000000e+008
  +1.21000000000e+008
  +1.22000000000e+008
  +1.23000000000e+008
  +1.24000000000e+008
  +1.25000000000e+008
  +1.26000000000e+008
  +1.27000000000e+008
  +1.28000000000e+008
  +1.29000000000e+008
  +1.30000000000e+008
  +1.31000000000e+008
  +1.32000000000e+008
  +1.33000000000e+008
  +1.34000000000e+008
  +1.35000000000e+008
  +1.36000000000e+008
  +1.37000000000e+008
  +1.38000000000e+008
  +1.39000000000e+008
  +1.40000000000e+008
  +1.41000000000e+008
  +1.42000000000e+008
  +1.43000000000e+008
  +1.44000000000e+008
  +1.45000000000e+008
  +1.46000000000e+008
  +1.47000000000e+008
  +1.48000000000e+008
  +1.49000000000e+008
  +1.50000000000e+008
  +1.51000000000e+008
  +1.52000000000e+008
  +1.53000000000e+008
  +1.54000000000e+008
  +1.55000000000e+008
  +1.56000000000e+008
  +1.57000000000e+008
  +1.58000000000e+008
  +1.59000000000e+008
  +1.60000000000e+008
  +1.61000000000e+008
  +1.62000000000e+008
  +1.63000000000e+008
  +1.64000000000e+008
  +1.65000000000e+008
  +1.66000000000e+008
  +1.67000000000e+008
  +1.68000000000e+008
  +1.69000000000e+008
  +1.70000000000e+008
  +1.71000000000e+008
  +1.72000000000e+008
  +1.73000000000e+008
  +1.74000000000e+008
  +1.75000000000e+008
  +1.76000000000e+008
  +1.77000000000e+008
  +1.78000000000e+008
  +1.79000000000e+008
  +1.80000000000e+008
  +1.81000000000e+008
  +1.82000000000e+008
  +1.83000000000e+008
  +1.84000000000e+008
  +1.85000000000e+008
  +1.86000000000e+008
  +1.87000000000e+008
  +1.88000000000e+008
  +1.89000000000e+008
  +1.90000000000e+008
  +1.91000000000e+008
  +1.92000000000e+008
  +1.93000000000e+008
  +1.94000000000e+008
  +1.95000000000e+008
  +1.96000000000e+008
  +1.97000000000e+008
  +1.98000000000e+008
  +1.99000000000e+008
  +2.00000000000e+008
  +2.01000000000e+008
  +2.02000000000e+008
  +2.03000000000e+008
  +2.04000000000e+008
  +2.05000000000e+008
  +2.06000000000e+008
  +2.07000000000e+008
  +2.08000000000e+008
  +2.09000000000e+008
  +2.10000000000e+008
  +2.11000000000e+008
  +2.12000000000e+008
  +2.13000000000e+008
  +2.14000000000e+008
  +2.15000000000e+008
  +2.16000000000e+008
  +2.17000000000e+008
  +2.18000000000e+008
  +2.19000000000e+008
  +2.20000000000e+008
  +2.21000000000e+008
  +2.22000000000e+008
  +2.23000000000e+008
  +2.24000000000e+008
  +2.25000000000e+008
  +2.26000000000e+008
  +2.27000000000e+008
  +2.28000000000e+008
  +2.29000000000e+008
  +2.30000000000e+008
  +2.31000000000e+008
  +2.32000000000e+008
  +2.33000000000e+008
  +2.34000000000e+008
  +2.35000000000e+008
  +2.36000000000e+008
  +2.37000000000e+008
  +2.38000000000e+008
  +2.39000000000e+008
  +2.40000000000e+008
  +2.41000000000e+008
  +2.42000000000e+008
  +2.43000000000e+008
  +2.44000000000e+008
  +2.45000000000e+008
  +2.46000000000e+008
  +2.47000000000e+008
  +2.48000000000e+008
  +2.49000000000e+008
  +2.50000000000e+008
  +2.51000000000e+008
  +2.52000000000e+008
  +2.53000000000e+008
  +2.54000000000e+008
  +2.55000000000e+008
  +2.56000000000e+008
  +2.57000000000e+008
  +2.58000000000e+008
  +2.59000000000e+008
  +2.60000000000e+008
  +2.61000000000e+008
  +2.62000000000e+008
  +2.63000000000e+008
  +2.64000000000e+008
  +2.65000000000e+008
  +2.66000000000e+008
  +2.67000000000e+008
  +2.68000000000e+008
  +2.69000000000e+008
  +2.70000000000e+008
  +2.71000000000e+008
  +2.72000000000e+008
  +2.73000000000e+008
  +2.74000000000e+008
  +2.75000000000e+008
  +2.76000000000e+008
  +2.77000000000e+008
  +2.78000000000e+008
  +2.79000000000e+008
  +2.80000000000e+008
  +2.81000000000e+008
  +2.82000000000e+008
  +2.83000000000e+008
  +2.84000000000e+008
  +2.85000000000e+008
  +2.86000000000e+008
  +2.87000000000e+008
  +2.88000000000e+008
  +2.89000000000e+008
  +2.90000000000e+008
  +2.91000000000e+008
  +2.92000000000e+008
  +2.93000000000e+008
  +2.94000000000e+008
  +2.95000000000e+008
  +2.96000000000e+008
  +2.97000000000e+008
  +2.98000000000e+008
  +2.99000000000e+008
  +3.00000000000e+008
</indep>
<dep phaseS21 frequency>
  -1.82112449419e+000
  -3.64224898837e+000
  -5.46337348256e+000
  -7.28449797674e+000
  -9.10562247093e+000
  -1.09267469651e+001
  -1.27478714593e+001
  -1.45689959535e+001
  -1.63901204477e+001
  -1.82112449419e+001
  -2.00323694360e+001
  -2.18534939302e+001
  -2.36746184244e+001
  -2.54957429186e+001
  -2.73168674128e+001
  -2.91379919070e+001
  -3.09591164011e+001
  -3.27802408953e+001
  -3.46013653895e+001
  -3.64224898837e+001
  -3.82436143779e+001
  -4.00647388720e+001
  -4.18858633662e+001
  -4.37069878604e+001
  -4.55281123546e+001
  -4.73492368487e+001
  -4.91703613429e+001
  -5.09914858371e+001
  -5.28126103313e+001
  -5.46337348254e+001
  -5.64548593196e+001
  -5.82759838138e+001
  -6.00971083080e+001
  -6.19182328021e+001
  -6.37393572963e+001
  -6.55604817905e+001
  -6.73816062846e+001
  -6.92027307788e+001
  -7.10238552730e+001
  -7.28449797672e+001
  -7.46661042613e+001
  -7.64872287555e+001
  -7.83083532497e+001
  -8.01294777438e+001
  -8.19506022380e+001
  -8.37717267322e+001
  -8.55928512263e+001
  -8.74139757205e+001
  -8.92351002147e+001
  -9.10562247088e+001
  -9.28773492030e+001
  -9.46984736972e+001
  -9.65195981913e+001
  -9.83407226855e+001
  -1.00161847180e+002
  -1.01982971674e+002
  -1.03804096168e+002
  -1.05625220662e+002
  -1.07446345156e+002
  -1.09267469651e+002
  -1.11088594145e+002
  -1.12909718639e+002
  -1.14730843133e+002
  -1.16551967627e+002
  -1.18373092121e+002
  -1.20194216616e+002
  -1.22015341110e+002
  -1.23836465604e+002
  -1.25657590098e+002
  -1.27478714592e+002
  -1.29299839086e+002
  -1.31120963581e+002
  -1.32942088075e+002
  -1.34763212569e+002
  -1.36584337063e+002
  -1.38405461557e+002
  -1.40226586051e+002
  -1.42047710546e+002
  -1.43868835040e+002
  -1.45689959534e+002
  -1.47511084028e+002
  -1.49332208522e+002
  -1.51153333017e+002
  -1.52974457511e+002
  -1.54795582005e+002
  -1.56616706499e+002
  -1.58437830993e+002
  -1.60258955487e+002
  -1.62080079982e+002
  -1.63901204476e+002
  -1.65722328970e+002
  -1.67543453464e+002
  -1.69364577958e+002
  -1.71185702453e+002
  -1.73006826947e+002
  -1.74827951441e+002
  -1.76649075935e+002
  -1.78470200429e+002
  +1.79708675076e+002
  +1.77887550582e+002
  +1.76066426088e+002
  +1.74245301594e+002
  +1.72424177100e+002
  +1.70603052606e+002
  +1.68781928111e+002
  +1.66960803617e+002
  +1.65139679123e+002
  +1.63318554629e+002
  +1.61497430135e+002
  +1.59676305640e+002
  +1.57855181146e+002
  +1.56034056652e+002
  +1.54212932158e+002
  +1.52391807664e+002
  +1.50570683170e+002
  +1.48749558675e+002
  +1.46928434181e+002
  +1.45107309687e+002
  +1.43286185193e+002
  +1.41465060699e+002
  +1.39643936204e+002
  +1.37822811710e+002
  +1.36001687216e+002
  +1.34180562722e+002
  +1.32359438228e+002
  +1.30538313734e+002
  +1.28717189239e+002
  +1.26896064745e+002
  +1.25074940251e+002
  +1.23253815757e+002
  +1.21432691263e+002
  +1.19611566769e+002
  +1.17790442274e+002
  +1.15969317780e+002
  +1.14148193286e+002
  +1.12327068792e+002
  +1.10505944298e+002
  +1.08684819804e+002
  +1.06863695309e+002
  +1.05042570815e+002
  +1.03221446321e+002
  +1.01400321827e+002
  +9.95791973327e+001
  +9.77580728385e+001
  +9.59369483443e+001
  +9.41158238502e+001
  +9.22946993560e+001
  +9.04735748618e+001
  +8.86524503677e+001
  +8.68313258735e+001
  +8.50102013793e+001
  +8.31890768852e+001
  +8.13679523910e+001
  +7.95468278968e+001
  +7.77257034027e+001
  +7.59045789085e+001
  +7.40834544143e+001
  +7.22623299202e+001
  +7.04412054260e+001
  +6.86200809318e+001
  +6.67989564376e+001
  +6.49778319435e+001
  +6.31567074493e+001
  +6.13355829551e+001
  +5.95144584610e+001
  +5.76933339668e+001
  +5.58722094726e+001
  +5.40510849784e+001
  +5.22299604843e+001
  +5.04088359901e+001
  +4.85877114959e+001
  +4.67665870017e+001
  +4.49454625076e+001
  +4.31243380134e+001
  +4.13032135192e+001
  +3.94820890250e+001
  +3.76609645308e+001
  +3.58398400367e+001
  +3.40187155425e+001
  +3.21975910483e+001
  +3.03764665541e+001
  +2.85553420599e+001
  +2.67342175658e+001
  +2.49130930716e+001
  +2.30919685774e+001
  +2.12708440832e+001
  +1.94497195890e+001
  +1.76285950948e+001
  +1.58074706007e+001
  +1.39863461065e+001
  +1.21652216123e+001
  +1.03440971181e+001
  +8.52297262392e+000
  +6.70184812974e+000
  +4.88072363555e+000
  +3.05959914137e+000
  +1.23847464718e+000
  -5.82649847006e-001
  -2.40377434119e+000
  -4.22489883538e+000
  -6.04602332956e+000
  -7.86714782375e+000
  -9.68827231793e+000
  -1.15093968121e+001
  -1.33305213063e+001
  -1.51516458005e+001
  -1.69727702947e+001
  -1.87938947889e+001
  -2.06150192830e+001
  -2.24361437772e+001
  -2.42572682714e+001
  -2.60783927656e+001
  -2.78995172598e+001
  -2.97206417540e+001
  -3.15417662481e+001
  -3.33628907423e+001
  -3.51840152365e+001
  -3.70051397307e+001
  -3.88262642249e+001
  -4.06473887190e+001
  -4.24685132132e+001
  -4.42896377074e+001
  -4.61107622016e+001
  -4.79318866957e+001
  -4.97530111899e+001
  -5.15741356841e+001
  -5.33952601783e+001
  -5.52163846724e+001
  -5.70375091666e+001
  -5.88586336608e+001
  -6.06797581550e+001
  -6.25008826491e+001
  -6.43220071433e+001
  -6.61431316375e+001
  -6.79642561316e+001
  -6.97853806258e+001
  -7.16065051200e+001
  -7.34276296142e+001
  -7.52487541083e+001
  -7.70698786025e+001
  -7.88910030967e+001
  -8.07121275908e+001
  -8.25332520850e+001
  -8.43543765792e+001
  -8.61755010733e+001
  -8.79966255675e+001
  -8.98177500617e+001
  -9.16388745558e+001
  -9.34599990500e+001
  -9.52811235442e+001
  -9.71022480383e+001
  -9.89233725325e+001
  -1.00744497027e+002
  -1.02565621521e+002
  -1.04386746015e+002
  -1.06207870509e+002
  -1.08028995003e+002
  -1.09850119498e+002
  -1.11671243992e+002
  -1.13492368486e+002
  -1.15313492980e+002
  -1.17134617474e+002
  -1.18955741968e+002
  -1.20776866463e+002
  -1.22597990957e+002
  -1.24419115451e+002
  -1.26240239945e+002
  -1.28061364439e+002
  -1.29882488933e+002
  -1.31703613428e+002
  -1.33524737922e+002
  -1.35345862416e+002
  -1.37166986910e+002
  -1.38988111404e+002
  -1.40809235898e+002
  -1.42630360393e+002
  -1.44451484887e+002
  -1.46272609381e+002
  -1.48093733875e+002
  -1.49914858369e+002
  -1.51735982864e+002
  -1.53557107358e+002
  -1.55378231852e+002
  -1.57199356346e+002
  -1.59020480840e+002
  -1.60841605334e+002
  -1.62662729829e+002
  -1.64483854323e+002
  -1.66304978817e+002
  -1.68126103311e+002
  -1.69947227805e+002
  -1.71768352300e+002
  -1.73589476794e+002
  -1.75410601288e+002
  -1.77231725782e+002
  -1.79052850276e+002
  +1.79126025229e+002
  +1.77304900735e+002
  +1.75483776241e+002
  +1.73662651747e+002
</dep>
<dep phaseS11 frequency>
  +8.73346322924e+001
  +8.57446057731e+001
  +8.40263527227e+001
  +8.22670013634e+001
  +8.04884529244e+001
  +7.86991540204e+001
  +7.69031435168e+001
  +7.51026272833e+001
  +7.32989252401e+001
  +7.14928818291e+001
  +6.96850657344e+001
  +6.78758758390e+001
  +6.60656013573e+001
  +6.42544578581e+001
  +6.24426098279e+001
  +6.06301853391e+001
  +5.88172858930e+001
  +5.70039932086e+001
  +5.51903740163e+001
  +5.33764835164e+001
  +5.15623679198e+001
  +4.97480663470e+001
  +4.79336122685e+001
  +4.61190346127e+001
  +4.43043586298e+001
  +4.24896065718e+001
  +4.06747982360e+001
  +3.88599514021e+001
  +3.70450821887e+001
  +3.52302053464e+001
  +3.34153345020e+001
  +3.16004823630e+001
  +2.97856608921e+001
  +2.79708814566e+001
  +2.61561549587e+001
  +2.43414919505e+001
  +2.25269027365e+001
  +2.07123974669e+001
  +1.88979862237e+001
  +1.70836791016e+001
  +1.52694862846e+001
  +1.34554181213e+001
  +1.16414851987e+001
  +9.82769841657e+000
  +8.01406906332e+000
  +6.20060889457e+000
  +4.38733021578e+000
  +2.57424596995e+000
  +7.61369831949e-001
  -1.05128368918e+000
  -2.86369913827e+000
  -4.67585999052e+000
  -6.48774851441e+000
  -8.29934561856e+000
  -1.01106306796e+001
  -1.19215813481e+001
  -1.37321733278e+001
  -1.55423801246e+001
  -1.73521727585e+001
  -1.91615194333e+001
  -2.09703851539e+001
  -2.27787312831e+001
  -2.45865150257e+001
  -2.63936888232e+001
  -2.82001996436e+001
  -3.00059881419e+001
  -3.18109876622e+001
  -3.36151230479e+001
  -3.54183092124e+001
  -3.72204494136e+001
  -3.90214331566e+001
  -4.08211336295e+001
  -4.26194045431e+001
  -4.44160762086e+001
  -4.62109506292e+001
  -4.80037953025e+001
  -4.97943353214e+001
  -5.15822432024e+001
  -5.33671256382e+001
  -5.51485060345e+001
  -5.69258011748e+001
  -5.86982895755e+001
  -6.04650678598e+001
  -6.22249895015e+001
  -6.39765770287e+001
  -6.57178932260e+001
  -6.74463471165e+001
  -6.91583926448e+001
  -7.08490438180e+001
  -7.25110611622e+001
  -7.41335165244e+001
  -7.56991013866e+001
  -7.71786768922e+001
  -7.85190918861e+001
  -7.96120677902e+001
  -8.01979251713e+001
  -7.94609470392e+001
  -7.29064657748e+001
  +3.38719410939e+001
  +7.63260012633e+001
  +7.97598575238e+001
  +7.99027238992e+001
  +7.91080785174e+001
  +7.79186293192e+001
  +7.65261507226e+001
  +7.50155779684e+001
  +7.34302952154e+001
  +7.17947711229e+001
  +7.01238533887e+001
  +6.84270739679e+001
  +6.67108326702e+001
  +6.49795862294e+001
  +6.32365339727e+001
  +6.14840323222e+001
  +5.97238554996e+001
  +5.79573651303e+001
  +5.61856238413e+001
  +5.44094733055e+001
  +5.26295890703e+001
  +5.08465198486e+001
  +4.90607161789e+001
  +4.72725516658e+001
  +4.54823389513e+001
  +4.36903418822e+001
  +4.18967848923e+001
  +4.01018603158e+001
  +3.83057341494e+001
  +3.65085506324e+001
  +3.47104359222e+001
  +3.29115010681e+001
  +3.11118444363e+001
  +2.93115537031e+001
  +2.75107075050e+001
  +2.57093768155e+001
  +2.39076261018e+001
  +2.21055143033e+001
  +2.03030956672e+001
  +1.85004204660e+001
  +1.66975356197e+001
  +1.48944852409e+001
  +1.30913111156e+001
  +1.12880531330e+001
  +9.48474967396e+000
  +7.68143796717e+000
  +5.87815441927e+000
  +4.07493492672e+000
  +2.27181517464e+000
  +4.68830928154e-001
  -1.33398167867e+000
  -3.13658585120e+000
  -4.93894383498e+000
  -6.74101660372e+000
  -8.54276352886e+000
  -1.03441420250e+001
  -1.21451071640e+001
  -1.39456112512e+001
  -1.57456033535e+001
  -1.75450287710e+001
  -1.93438284382e+001
  -2.11419382423e+001
  -2.29392882394e+001
  -2.47358017495e+001
  -2.65313943032e+001
  -2.83259724085e+001
  -3.01194320995e+001
  -3.19116572167e+001
  -3.37025173576e+001
  -3.54918654189e+001
  -3.72795346310e+001
  -3.90653349540e+001
  -4.08490486699e+001
  -4.26304249485e+001
  -4.44091730987e+001
  -4.61849541141e+001
  -4.79573699873e+001
  -4.97259500734e+001
  -5.14901335024e+001
  -5.32492462385e+001
  -5.50024707801e+001
  -5.67488055896e+001
  -5.84870099502e+001
  -6.02155277487e+001
  -6.19323801540e+001
  -6.36350112999e+001
  -6.53200610813e+001
  -6.69830214813e+001
  -6.86177002992e+001
  -7.02153534549e+001
  -7.17632196431e+001
  -7.32419152681e+001
  -7.46205027927e+001
  -7.58463888917e+001
  -7.68224078505e+001
  -7.73471309838e+001
  -7.69250923244e+001
  -7.39368218394e+001
  -5.89420416703e+001
  +3.86866576968e+001
  +7.10322453559e+001
  +7.61462656780e+001
  +7.71805165399e+001
  +7.69114373809e+001
  +7.60659241747e+001
  +7.49156872669e+001
  +7.35850197498e+001
  +7.21387684139e+001
  +7.06140597643e+001
  +6.90336762940e+001
  +6.74123717816e+001
  +6.57601211244e+001
  +6.40839102952e+001
  +6.23887780534e+001
  +6.06784504851e+001
  +5.89557426597e+001
  +5.72228213571e+001
  +5.54813818674e+001
  +5.37327699522e+001
  +5.19780678371e+001
  +5.02181560308e+001
  +4.84537585458e+001
  +4.66854764987e+001
  +4.49138134321e+001
  +4.31391946459e+001
  +4.13619821304e+001
  +3.95824862280e+001
  +3.78009748324e+001
  +3.60176807132e+001
  +3.42328073992e+001
  +3.24465339434e+001
  +3.06590188126e+001
  +2.88704030858e+001
  +2.70808131037e+001
  +2.52903626795e+001
  +2.34991549557e+001
  +2.17072839756e+001
  +1.99148360220e+001
  +1.81218907669e+001
  +1.63285222667e+001
  +1.45347998303e+001
  +1.27407887837e+001
  +1.09465511510e+001
  +9.15214626553e+000
  +7.35763132788e+000
  +5.56306191943e+000
  +3.76849248381e+000
  +1.97397678423e+000
  +1.79568345586e-001
  -1.61467911108e+000
  -3.40871123418e+000
  -5.20247259974e+000
  -6.99590625439e+000
  -8.78895323533e+000
  -1.05815520584e+001
  -1.23736381648e+001
  -1.41651433156e+001
  -1.59559949212e+001
  -1.77461152926e+001
  -1.95354207956e+001
  -2.13238208887e+001
  -2.31112170208e+001
  -2.48975013573e+001
  -2.66825553001e+001
  -2.84662477553e+001
  -3.02484330941e+001
  -3.20289487371e+001
  -3.38076122739e+001
  -3.55842180082e+001
  -3.73585327851e+001
  -3.91302909179e+001
  -4.08991879765e+001
  -4.26648731243e+001
  -4.44269395879e+001
  -4.61849127067e+001
  -4.79382348073e+001
  -4.96862458722e+001
  -5.14281585710e+001
  -5.31630256326e+001
  -5.48896966704e+001
  -5.66067602541e+001
  -5.83124649909e+001
  -6.00046101709e+001
  -6.16803913494e+001
  -6.33361776066e+001
  -6.49671824351e+001
  -6.65669639013e+001
  -6.81266410748e+001
  -6.96336193992e+001
  -7.10694246201e+001
  -7.24058233285e+001
  -7.35974129195e+001
  -7.45662760550e+001
  -7.51666878509e+001
  -7.50915595790e+001
  -7.35681451383e+001
  -6.79916734960e+001
  -4.33877645583e+001
  +4.10875871962e+001
  +6.74378422124e+001
  +7.33000549708e+001
  +7.49103784757e+001
</dep>
<dep dBS21 frequency>
  -4.06962136771e-003
  -5.91703629775e-003
