<Qucs Dataset 0.0.18>
<indep dtime 9>
  +0.00000000000e+00
  +1.00000000000e-12
  +2.00000000000e-12
  +3.00000000000e-12
  +4.00000000000e-12
  +5.00000000000e-12
  +6.00000000000e-12
  +7.00000000000e-12
  +8.00000000000e-12
</indep>
<dep X1.A.X dtime>
  0
  1
  0
  1
  0
  1
  0
  1
  0
</dep>
<dep X1.B.X dtime>
  0
  0
  1
  1
  0
  0
  1
  1
  0
</dep>
<dep X1.C.X dtime>
  0
  0
  0
  0
  1
  1
  1
  1
  0
</dep>
<dep X1.Y.X dtime>
  1
  0
  0
  1
  0
  1
  1
  0
  1
</dep>
<dep YQ.X dtime>
  0
  1
  1
  0
  1
  0
  0
  1
  0
</dep>
<dep YV.X dtime>
  1
  0
  0
  1
  0
  1
  1
  0
  1
</dep>
<dep C4.X dtime>
  0
  0
  0
  0
  1
  1
  1
  1
  0
</dep>
<dep C2.X dtime>
  0
  0
  1
  1
  0
  0
  1
  1
  0
</dep>
<dep C1.X dtime>
  0
  1
  0
  1
  0
  1
  0
  1
  0
</dep>
<dep _srcC1netC1.X dtime>
  0
  1
  0
  1
  0
  1
  0
  1
  0
</dep>
<dep _srcC2netC2.X dtime>
  0
  0
  1
  1
  0
  0
  1
  1
  0
</dep>
<dep _srcC4netC4.X dtime>
  0
  0
  0
  0
  1
  1
  1
  1
  0
</dep>
